Time Stamp,ID,Extended,Bus,LEN,D1,D2,D3,D4,D5,D6,D7,D8
666404200,00000287,false,0,8,27,10,27,10,27,10,00,00
666406700,00000285,false,0,8,00,00,02,00,00,00,00,00
666409300,00000370,false,0,8,05,BE,00,00,00,00,00,00
666411700,00000207,false,0,8,08,00,00,00,08,10,00,00
666411900,00000371,false,0,8,00,00,00,00,00,00,00,00
666414200,00000287,false,0,8,27,10,27,10,27,10,00,00
666416800,00000285,false,0,8,00,00,02,08,81,00,08,10
666419300,00000286,false,0,8,00,00,00,00,00,00,00,00
666424200,00000287,false,0,8,27,10,27,10,27,10,00,00
666426700,00000285,false,0,8,00,00,02,00,00,00,00,10
666429200,00000370,false,0,8,00,00,00,00,00,00,00,00
666430300,00000424,false,0,8,05,80,00,1E,00,10,00,00
666434200,00000287,false,0,8,27,10,27,10,27,10,00,00
666436700,00000285,false,0,8,00,00,02,00,00,00,00,10
666444000,000006FA,false,0,8,00,4A,4D,46,58,44,47,47
666444200,00000287,false,0,8,27,10,27,10,27,10,00,00
666446700,00000285,false,0,8,00,00,02,00,00,00,00,10
666448500,00000188,false,0,8,00,00,FF,FF,00,00,00,00
666449200,00000370,false,0,8,00,00,00,00,00,00,00,00
666452200,00000388,false,0,8,7C,00,00,00,00,00,00,00
666454100,00000287,false,0,8,27,10,27,10,27,10,00,00
666456700,00000285,false,0,8,00,00,02,00,00,00,00,10
666459600,00000154,false,0,8,61,FF,61,61,0A,07,6C,78
666462200,00000676,false,0,8,00,00,00,00,00,00,00,00
666464100,00000287,false,0,8,27,10,27,10,27,10,00,00
666466700,00000285,false,0,8,00,00,02,00,00,00,00,10
666469100,00000370,false,0,8,00,00,00,00,00,00,00,00
666470500,00000424,false,0,8,05,7F,00,1C,00,10,00,00
666472200,00000677,false,0,8,00,00,00,00,00,00,00,00
666474100,00000287,false,0,8,27,10,27,10,27,10,00,00
666476600,00000285,false,0,8,00,00,02,00,00,00,00,10
666478400,00000185,false,0,8,00,00,04,00,00,00,00,00
666482200,00000571,false,0,8,00,00,00,00,00,00,00,00
666484000,00000287,false,0,8,27,10,27,10,27,10,00,00
666486600,00000285,false,0,8,00,00,02,00,00,00,00,10
666489100,00000370,false,0,8,00,00,00,00,00,00,00,00
666494000,00000287,false,0,8,27,10,27,10,27,10,00,00
666496500,00000285,false,0,8,00,00,02,00,00,00,00,10
666498400,00000185,false,0,8,00,00,08,00,00,00,00,00
666504000,00000287,false,0,8,27,10,27,10,27,10,00,00
666506600,00000285,false,0,8,00,00,02,00,00,00,00,10
666509000,00000370,false,0,8,00,00,00,00,00,00,00,00
666510200,00000424,false,0,8,05,7F,00,10,00,10,00,00
666511400,00000207,false,0,8,08,00,00,00,08,10,00,00
666511700,00000371,false,0,8,00,00,FE,00,00,00,00,00
666514000,00000287,false,0,8,27,10,27,10,27,10,00,00
666516500,00000285,false,0,8,00,00,02,00,00,00,00,10
666518900,00000289,false,0,8,27,10,4E,20,00,01,11,00
666519200,00000286,false,0,8,00,00,00,00,00,00,00,00
666519400,00000299,false,0,8,37,38,41,69,38,00,00,00
666519600,0000028B,false,0,8,27,10,4E,20,00,01,01,00
666519900,00000732,false,0,8,03,E8,03,E8,64,64,02,81
666520100,0000029B,false,0,8,38,37,42,69,39,0A,00,38
666520400,00000734,false,0,8,03,E8,03,E8,64,64,37,37
666522300,00000288,false,0,8,27,10,4E,20,00,01,01,00
666522600,00000298,false,0,8,38,38,41,00,39,00,00,38
666522900,0000075A,false,0,8,03,E8,03,E8,64,64,37,38
666523900,00000287,false,0,8,27,10,27,10,27,10,00,00
666526500,00000285,false,0,8,00,00,02,00,00,00,00,10
666528900,00000370,false,0,8,00,00,00,00,00,00,00,00
666529200,00000289,false,0,8,27,10,4E,20,00,01,11,00
666529400,0000028B,false,0,8,27,10,4E,20,00,01,01,00
666529700,00000566,false,0,8,00,8A,00,00,00,00,00,00
666529900,0000056A,false,0,8,00,8A,00,00,00,00,00,00
666530100,00000667,false,0,8,00,39,34,31,30,41,31,36
666530400,00000669,false,0,8,00,39,34,31,30,41,31,36
666532000,00000288,false,0,8,27,10,4E,20,00,01,01,00
666532200,00000564,false,0,8,00,8A,80,00,00,00,00,00
666532500,00000665,false,0,8,00,39,34,31,30,41,31,36
666533900,00000287,false,0,8,27,10,27,10,27,10,00,00
666536600,00000285,false,0,8,00,00,02,00,00,00,00,10
666538900,00000289,false,0,8,27,10,4E,20,00,01,11,00
666539200,00000567,false,0,8,80,00,00,00,00,00,00,00
666539500,0000028B,false,0,8,27,10,4E,20,00,01,01,00
666539700,00000732,false,0,8,03,E8,03,E8,64,64,02,81
666540000,0000056B,false,0,8,80,00,00,00,00,00,00,00
666540300,00000734,false,0,8,03,E8,03,E8,64,64,37,37
666541900,00000288,false,0,8,27,10,4E,20,00,01,01,00
666537600,000003C2,false,1,8,80,00,00,01,C8,00,00,00
666542200,00000565,false,0,8,80,00,00,00,00,00,00,00
666542400,0000075A,false,0,8,03,E8,03,E8,64,64,37,38
666543800,000006FA,false,0,8,01,32,57,4B,5A,30,30,30
666544000,00000287,false,0,8,27,10,27,10,27,10,00,00
666546400,00000285,false,0,8,00,00,02,00,00,00,00,10
666548300,00000188,false,0,8,00,00,FF,FF,00,00,00,00
666547500,000003C2,false,1,8,80,00,00,00,C8,00,00,00
666548900,00000370,false,0,8,00,00,00,00,00,00,00,00
666549100,00000289,false,0,8,27,10,4E,20,00,01,11,10
666549400,0000028B,false,0,8,27,10,4E,20,00,01,01,10
666549600,0000056D,false,0,8,00,00,00,00,00,00,00,80
666549800,0000056F,false,0,8,00,00,00,00,00,00,00,80
666550100,00000668,false,0,8,01,3D,F2,11,16,00,00,00
666550300,00000424,false,0,8,05,7F,00,10,00,10,00,00
666550600,0000066A,false,0,8,01,4B,E4,87,C8,00,00,00
666551900,00000288,false,0,8,27,10,4E,20,00,01,01,10
666552100,00000388,false,0,8,01,00,00,00,00,00,00,02
666552400,0000056C,false,0,8,00,00,00,00,00,00,00,80
666552600,00000666,false,0,8,01,26,94,74,99,00,00,00
666553900,00000287,false,0,8,27,10,27,10,27,10,00,00
666555300,00000377,false,0,8,00,00,00,00,28,28,28,20
666556400,00000285,false,0,8,00,00,02,00,00,00,00,10
666557500,000003C2,false,1,8,80,00,00,00,C8,00,00,00
666558900,00000289,false,0,8,27,10,4E,20,00,01,11,10
666559100,0000028B,false,0,8,27,10,4E,20,00,01,01,10
666559300,00000732,false,0,8,03,E8,03,E8,64,64,02,81
666559600,00000154,false,0,8,61,FF,61,61,0A,07,6C,78
666559800,00000733,false,0,8,37,37,37,38,10,B0,A1,38
666560000,00000734,false,0,8,03,E8,03,E8,64,64,37,37
666561000,000003C3,false,1,8,00,00,00,00,00,00,00,00
666560300,00000735,false,0,8,38,00,38,00,10,B0,A1,37
666561900,00000288,false,0,8,27,10,4E,20,00,01,01,10
666562200,0000075A,false,0,8,03,E8,03,E8,64,64,37,38
666562400,0000075B,false,0,8,38,00,38,00,10,B2,A1,38
666563900,00000287,false,0,8,27,10,27,10,27,10,00,00
666565300,0000038A,false,0,8,3E,39,00,00,04,00,00,00
666566400,00000285,false,0,8,00,00,02,00,00,00,00,10
666567500,000003C2,false,1,8,80,00,00,00,C8,00,00,00
666568800,00000370,false,0,8,00,00,00,00,00,00,00,00
666569100,00000289,false,0,8,27,10,4E,20,00,01,11,10
666569300,0000028B,false,0,8,27,10,4E,20,00,01,01,10
666569500,0000029A,false,0,8,00,4A,4D,46,58,44,47,47
666571000,00000373,false,0,8,00,00,7F,BC,00,00,80,00
666571900,00000288,false,0,8,27,10,4E,20,00,01,01,10
666573800,00000287,false,0,8,27,10,27,10,27,10,00,00
666575300,00000377,false,0,8,00,00,00,00,28,28,28,20
666575900,00000374,false,0,8,00,00,00,00,00,00,00,F0
666576400,00000285,false,0,8,00,00,02,00,00,00,00,10
666578200,00000185,false,0,8,00,00,08,00,00,00,00,00
666577600,000003C2,false,1,8,80,00,00,00,C8,00,00,00
666578800,00000289,false,0,8,27,10,4E,20,00,01,11,10
666579100,0000028B,false,0,8,27,10,4E,20,00,01,01,10
666579300,00000566,false,0,8,00,8A,00,00,00,00,00,00
666579600,0000056A,false,0,8,00,8A,00,00,00,00,00,00
666579800,00000732,false,0,8,03,E8,03,E8,64,64,02,81
666580000,00000734,false,0,8,03,E8,03,E8,64,64,37,37
666581000,00000373,false,0,8,00,00,7F,BC,00,00,80,00
666581900,00000288,false,0,8,27,10,4E,20,00,01,01,10
666582100,00000564,false,0,8,00,8A,80,00,00,00,00,00
666582400,0000075A,false,0,8,03,E8,03,E8,64,64,37,38
666583800,00000287,false,0,8,27,10,27,10,27,10,00,00
666585300,00000389,false,0,8,00,00,00,39,39,00,00,00
666585900,00000375,false,0,8,00,00,00,00,00,00,00,00
666586300,00000285,false,0,8,00,00,02,00,00,00,00,10
666587500,000003C2,false,1,8,80,00,00,01,C8,00,00,00
666588800,00000370,false,0,8,00,00,00,00,00,00,00,00
666589000,00000289,false,0,8,27,10,4E,20,00,01,11,10
666589200,0000028B,false,0,8,27,10,4E,20,00,01,01,10
666589500,00000567,false,0,8,80,00,00,00,00,00,00,00
666589700,0000056B,false,0,8,80,00,00,00,00,00,00,00
666590200,00000424,false,0,8,05,7F,00,10,00,10,00,00
666590900,00000373,false,0,8,00,00,7F,BC,00,00,80,00
666591900,00000288,false,0,8,27,10,4E,20,00,01,01,10
666592100,00000565,false,0,8,80,00,00,00,00,00,00,00
666593400,000005A1,false,0,8,00,00,00,00,00,00,00,00
666593800,00000287,false,0,8,27,10,27,10,27,10,00,00
666595300,00000377,false,0,8,00,00,00,00,28,28,28,20
666595900,0000066B,false,0,8,00,00,00,00,00,00,00,00
666596200,0000066C,false,0,8,00,00,00,00,00,00,00,00
666596400,00000285,false,0,8,00,00,02,00,00,00,00,10
666597500,000003C2,false,1,8,80,00,00,00,C8,00,00,00
666598200,00000185,false,0,8,00,00,0B,00,00,00,00,00
666598900,00000289,false,0,8,27,10,4E,20,00,01,11,10
666599100,0000028B,false,0,8,27,10,4E,20,00,01,01,10
666599300,0000056D,false,0,8,00,00,00,00,00,00,00,80
666599600,0000056F,false,0,8,00,00,00,00,00,00,00,80
666599800,00000732,false,0,8,03,E8,03,E8,64,64,02,81
666600100,00000734,false,0,8,03,E8,03,E8,64,64,37,37
666600900,00000373,false,0,8,00,00,7F,BC,00,00,80,00
666601000,000003C3,false,1,8,00,00,00,00,00,00,00,00
666601900,00000288,false,0,8,27,10,4E,20,00,01,01,10
666602100,0000056C,false,0,8,00,00,00,00,00,00,00,80
666602400,0000075A,false,0,8,03,E8,03,E8,64,64,37,38
666603000,00000362,false,0,8,00,00,00,00,00,00,00,00
666603700,00000287,false,0,8,27,10,27,10,27,10,00,00
666605300,00000569,false,0,8,0A,80,00,00,00,00,00,00
666606300,00000285,false,0,8,00,00,02,00,00,00,00,10
666607400,000003C2,false,1,8,7F,FF,FF,FF,C8,00,00,00
666608800,00000370,false,0,8,05,BE,00,00,00,40,00,00
666609000,00000289,false,0,8,27,10,4E,20,00,01,11,10
666609200,0000028B,false,0,8,27,10,4E,20,00,01,01,10
666610900,00000373,false,0,8,29,29,7F,BC,07,D8,80,12
666611300,00000371,false,0,8,00,00,00,00,00,00,00,00
666611500,00000207,false,0,8,08,00,00,00,08,10,0C,00
666611900,00000288,false,0,8,27,10,4E,20,00,01,01,10
666613100,00000362,false,0,8,00,00,00,00,00,00,00,00
666613700,00000287,false,0,8,27,10,27,10,27,10,00,02
666615200,00000377,false,0,8,05,04,00,0A,3C,3F,39,20
666616200,00000285,false,0,8,00,00,02,0A,81,00,08,10
666617400,000003C2,false,1,8,7F,FF,FF,FE,C8,00,00,00
666618700,00000286,false,0,8,00,00,00,37,00,00,0A,00
666618900,00000289,false,0,8,27,10,4E,20,00,01,11,10
666619200,0000028B,false,0,8,27,10,4E,20,00,01,01,10
666619400,00000299,false,0,8,37,38,41,05,38,00,00,00
666619700,0000029B,false,0,8,38,37,42,00,39,0A,00,38
666619900,00000732,false,0,8,03,E8,03,E8,64,64,02,81
666620100,00000734,false,0,8,03,E8,03,E8,64,64,37,37
666620900,00000373,false,0,8,29,29,7F,BC,07,D8,80,12
666621800,00000288,false,0,8,27,10,4E,20,00,01,01,10
666622100,00000298,false,0,8,38,38,41,37,39,00,00,38
666622300,0000075A,false,0,8,03,E8,03,E8,64,64,37,38
666622900,00000362,false,0,8,00,00,00,00,00,00,00,00
666623700,00000287,false,0,8,27,10,27,10,27,10,00,02
666625200,00000568,false,0,8,00,02,80,00,00,00,08,80
666626200,00000285,false,0,8,00,00,03,0A,80,00,08,10
666627500,000003C2,false,1,8,80,00,00,00,C8,00,00,00
666628700,00000370,false,0,8,05,BE,00,00,00,40,00,00
666628900,00000289,false,0,8,27,10,4E,20,00,01,11,10
666629100,0000028B,false,0,8,27,10,4E,20,00,01,01,10
666629400,00000566,false,0,8,00,8A,08,00,00,00,00,00
666629600,0000056A,false,0,8,00,8A,08,00,00,00,00,00
666630100,00000424,false,0,8,05,7F,00,10,00,10,00,00
666630900,00000373,false,0,8,29,29,7F,BC,07,D8,80,12
666631800,00000288,false,0,8,27,10,4E,20,00,01,01,10
666632100,00000564,false,0,8,00,8A,A8,00,00,00,00,00
666633000,00000362,false,0,8,00,00,00,00,00,00,00,00
666633600,00000287,false,0,8,27,10,27,10,27,10,00,02
666635200,00000377,false,0,8,05,04,00,0A,3C,3F,39,20
666636200,00000285,false,0,8,00,00,03,0A,80,00,08,10
666637400,000003C2,false,1,8,80,00,00,00,C8,00,00,00
666638800,00000289,false,0,8,27,10,4E,20,00,01,11,10
666639000,0000028B,false,0,8,27,10,4E,20,00,01,01,10
666639300,00000567,false,0,8,80,00,00,00,00,00,00,00
666639500,0000056B,false,0,8,80,00,00,00,00,00,00,00
666639700,00000732,false,0,8,03,E8,03,E8,64,64,02,81
666640000,00000734,false,0,8,03,E8,03,E8,64,64,37,37
666640900,00000373,false,0,8,29,29,7F,BC,07,D8,80,12
666640900,000003C3,false,1,8,00,00,00,00,00,00,00,00
666641800,00000288,false,0,8,27,10,4E,20,00,01,01,10
666642100,00000565,false,0,8,80,00,00,00,00,00,00,00
666642300,0000075A,false,0,8,03,E8,03,E8,64,64,37,38
666643000,00000362,false,0,8,00,00,00,00,00,00,00,00
666643400,000005A1,false,0,8,00,00,00,20,00,00,00,22
666643600,00000287,false,0,8,27,10,27,10,27,10,00,02
666644100,000006FA,false,0,8,02,38,36,37,00,00,00,00
666645200,00000563,false,0,8,00,00,00,02,02,00,00,00
666646100,00000285,false,0,8,00,00,03,0A,80,00,08,10
666647400,000003C2,false,1,8,7F,FF,FF,FF,C8,00,00,00
666648100,00000188,false,0,8,00,00,FF,FF,00,00,00,00
666648600,00000370,false,0,8,05,BE,00,00,00,40,00,00
666648900,00000289,false,0,8,27,10,4E,20,00,01,11,10
666649100,0000028B,false,0,8,27,10,4E,20,00,01,01,10
666649300,0000056D,false,0,8,00,00,00,00,00,00,00,80
666649600,0000056F,false,0,8,00,00,00,00,00,00,00,80
666650900,00000373,false,0,8,29,29,7F,BC,07,D8,80,12
666651800,00000288,false,0,8,27,10,4E,20,00,01,01,10
666652000,00000388,false,0,8,01,00,00,00,00,00,00,02
666652300,0000056C,false,0,8,00,00,00,00,00,00,00,80
666652900,00000362,false,0,8,00,00,00,00,00,00,00,00
666653600,00000287,false,0,8,27,10,27,10,27,10,00,02
666655200,00000377,false,0,8,05,04,00,0A,3C,3F,39,20
666656100,00000285,false,0,8,00,00,03,0A,80,00,08,10
666657300,000003C2,false,1,8,80,00,00,00,C8,00,00,00
666658800,00000289,false,0,8,27,10,4E,20,0C,01,11,10
666659000,00000732,false,0,8,03,E8,03,E8,64,64,02,81
666659300,0000028B,false,0,8,27,10,4E,20,0C,01,01,10
666659500,00000154,false,0,8,60,FF,61,61,0A,07,6C,78
666659700,00000733,false,0,8,37,37,37,38,10,B0,A1,38
666660000,00000734,false,0,8,03,E8,03,E8,64,64,37,37
666660200,00000735,false,0,8,38,00,38,00,10,B0,A1,37
666660900,00000373,false,0,8,29,29,7F,BC,07,D8,80,12
666661800,00000288,false,0,8,27,10,4E,20,0C,01,01,10
666662000,0000075A,false,0,8,03,E8,03,E8,64,64,37,38
666662300,0000075B,false,0,8,38,00,38,00,10,B2,A1,38
666662800,00000362,false,0,8,00,00,00,00,00,00,00,00
666663600,00000287,false,0,8,27,10,27,10,27,10,00,02
666665200,0000038A,false,0,8,3E,39,00,00,04,00,00,00
666666100,00000285,false,0,8,00,00,03,0A,80,00,08,10
666667300,000003C2,false,1,8,80,00,00,00,C8,00,00,00
666668500,00000370,false,0,8,05,BE,00,00,00,40,00,00
666668800,00000289,false,0,8,27,10,4E,20,0C,01,11,10
666669000,0000029A,false,0,8,01,32,57,4B,5A,30,30,30
666669200,0000028B,false,0,8,27,10,4E,20,0C,01,01,10
666670100,00000424,false,0,8,05,7F,00,10,00,10,00,00
666670900,00000373,false,0,8,29,29,7F,BC,07,D8,80,12
666671700,00000288,false,0,8,27,10,4E,20,0C,01,01,10
666672900,00000362,false,0,8,00,00,00,00,00,00,00,00
666673500,00000287,false,0,8,27,10,27,10,27,10,00,02
666675200,00000377,false,0,8,05,04,00,05,3C,3F,39,20
666675800,00000374,false,0,8,0A,8B,5B,00,3C,3C,00,30
666676100,00000285,false,0,8,00,00,03,0A,80,00,08,10
666677300,000003C2,false,1,8,80,00,00,00,C8,00,00,00
666678100,00000185,false,0,8,00,00,0B,00,00,00,00,00
666678800,00000289,false,0,8,27,10,4E,20,0C,01,11,10
666679100,00000566,false,0,8,00,8A,08,00,00,00,00,80
666679300,0000028B,false,0,8,27,10,4E,20,0C,01,01,10
666679500,00000732,false,0,8,03,E8,03,E8,64,64,02,81
666679800,0000056A,false,0,8,00,8A,08,00,00,00,00,80
666680100,00000734,false,0,8,03,E8,03,E8,64,64,37,37
666680800,00000373,false,0,8,29,29,7F,BC,07,D8,80,12
666680900,000003C3,false,1,8,00,00,00,00,00,00,00,00
666681700,00000288,false,0,8,27,10,4E,20,0C,01,01,10
666682000,00000564,false,0,8,00,8A,A8,00,00,00,00,80
666682300,0000075A,false,0,8,03,E8,03,E8,64,64,37,38
666682900,00000362,false,0,8,00,00,00,00,00,00,00,00
666683500,00000287,false,0,8,27,10,27,10,27,10,00,02
666685200,00000389,false,0,8,00,00,00,39,39,00,00,00
666685800,00000375,false,0,8,0F,0F,00,01,F4,00,00,00
666686100,00000285,false,0,8,00,00,03,0A,80,00,08,10
666687400,000003C2,false,1,8,80,00,00,01,C8,00,00,00
666688500,00000370,false,0,8,05,BE,00,00,00,40,00,00
666688800,00000289,false,0,8,27,10,4E,20,0C,01,11,10
666689000,00000567,false,0,8,80,00,00,00,00,00,00,00
666689300,0000028B,false,0,8,27,10,4E,20,0C,01,01,10
666689500,0000056B,false,0,8,80,00,00,00,00,00,00,00
666690800,00000373,false,0,8,29,29,7F,BC,07,D8,80,12
666691700,00000288,false,0,8,27,10,4E,20,0C,01,01,10
666692000,00000565,false,0,8,80,00,00,00,00,00,00,00
666692900,00000362,false,0,8,00,00,00,00,00,00,00,00
666693300,000005A1,false,0,8,00,00,00,20,00,00,00,22
666693600,00000287,false,0,8,27,10,27,10,27,10,00,02
666695100,00000377,false,0,8,05,04,00,05,3C,3F,39,20
666696000,00000285,false,0,8,00,00,03,0A,80,00,08,10
666697300,000003C2,false,1,8,80,00,00,00,C8,00,00,00
666698700,00000289,false,0,8,27,10,4E,20,0C,01,11,10
666699000,0000056D,false,0,8,00,00,00,00,00,00,00,80
666699200,0000028B,false,0,8,27,10,4E,20,0C,01,01,10
666699400,00000732,false,0,8,03,E8,03,E8,64,64,02,81
666699700,0000056F,false,0,8,00,00,00,00,00,00,00,80
666700100,00000734,false,0,8,03,E8,03,E8,64,64,37,37
666700800,00000373,false,0,8,29,29,7F,BC,07,D8,80,12
666701600,00000288,false,0,8,27,10,4E,20,0C,01,01,10
666701800,0000056C,false,0,8,00,00,00,00,00,00,00,80
666702100,0000075A,false,0,8,03,E8,03,E8,64,64,37,38
666702800,00000362,false,0,8,00,00,00,00,00,00,00,00
666703400,00000287,false,0,8,27,10,27,10,27,10,00,02
666705200,00000664,false,0,8,01,83,06,32,F3,00,00,00
666706000,00000285,false,0,8,00,00,03,0A,80,00,08,10
666707200,000003C2,false,1,8,80,00,00,02,C8,00,00,00
666708400,00000370,false,0,8,05,BE,00,00,00,40,00,00
666708700,00000289,false,0,8,27,10,4E,20,0C,01,11,10
666709000,0000028B,false,0,8,27,10,4E,20,0C,01,01,10
666710000,00000424,false,0,8,05,7F,00,10,00,10,00,00
666710800,00000373,false,0,8,29,29,7F,BC,07,D8,80,12
666711000,00000371,false,0,8,00,00,00,00,00,00,00,00
666711400,00000207,false,0,8,08,00,00,00,08,10,0C,00
666711700,00000288,false,0,8,27,10,4E,20,0C,01,01,10
666712900,00000362,false,0,8,00,00,00,00,00,00,00,00
666713400,00000287,false,0,8,27,10,27,10,27,10,00,02
666715100,00000377,false,0,8,05,02,00,05,3C,3F,39,20
666715900,00000285,false,0,8,00,00,03,0A,80,00,08,10
666717200,000003C2,false,1,8,7F,FF,FF,FE,C8,00,00,00
666718400,00000286,false,0,8,00,00,00,37,00,00,0A,00
666718700,00000289,false,0,8,27,10,4E,20,0C,01,11,10
666719000,00000299,false,0,8,37,38,41,3C,38,00,00,00
666719200,0000028B,false,0,8,27,10,4E,20,0C,01,01,10
666719400,00000732,false,0,8,03,E8,03,E8,64,64,02,81
666719700,0000029B,false,0,8,38,37,42,37,39,0A,00,38
666720000,00000734,false,0,8,03,E8,03,E8,64,64,37,37
666720800,00000373,false,0,8,29,29,7F,BC,07,D8,80,12
666720800,000003C3,false,1,8,09,CE,00,00,03,00,00,00
666721700,00000288,false,0,8,27,10,4E,20,0C,01,01,10
666722000,00000298,false,0,8,38,38,41,37,39,00,00,38
666722200,0000075A,false,0,8,03,E8,03,E8,64,64,37,38
666722800,00000362,false,0,8,00,00,00,00,00,00,00,00
666723400,00000287,false,0,8,27,10,27,10,27,10,00,02
666725100,00000663,false,0,8,00,39,34,38,31,41,31,35
666725900,00000285,false,0,8,00,00,03,0A,80,00,08,10
666727200,000003C2,false,1,8,80,00,00,02,C8,00,00,00
666728400,00000370,false,0,8,05,BE,00,00,00,40,00,00
666728700,00000289,false,0,8,27,10,4E,20,0C,01,11,10
666729000,00000566,false,0,8,00,8A,08,00,00,00,00,80
666729200,0000028B,false,0,8,27,10,4E,20,0C,01,01,10
666729500,0000056A,false,0,8,00,8A,08,00,00,00,00,80
666730800,00000373,false,0,8,29,29,7F,BC,07,D8,80,12
666731800,00000288,false,0,8,27,10,4E,20,0C,01,01,10
666732000,00000564,false,0,8,00,8A,A8,00,00,00,00,80
666732800,00000362,false,0,8,00,00,00,00,00,00,00,00
666733400,00000287,false,0,8,27,10,27,10,27,10,00,02
666735100,00000377,false,0,8,05,02,00,05,3C,3F,39,20
666735900,00000285,false,0,8,00,00,03,0A,80,00,08,10
666737200,000003C2,false,1,8,80,00,00,00,C8,00,00,00
666738700,00000289,false,0,8,27,10,4E,20,0C,01,11,10
666739000,00000567,false,0,8,80,00,00,00,00,00,00,00
666739200,0000028B,false,0,8,27,10,4E,20,0C,01,01,10
666739500,00000732,false,0,8,03,E8,03,E8,64,64,02,81
666739700,0000056B,false,0,8,80,00,00,00,00,00,00,00
666740000,00000734,false,0,8,03,E8,03,E8,64,64,37,37
666740800,00000373,false,0,8,29,29,7F,BC,07,D8,80,12
666741700,00000288,false,0,8,27,10,4E,20,0C,01,01,10
666741900,00000565,false,0,8,80,00,00,00,00,00,00,00
666742200,0000075A,false,0,8,03,E8,03,E8,64,64,37,38
666742600,00000362,false,0,8,00,00,00,00,00,00,00,00
666743300,000005A1,false,0,8,00,00,00,20,00,00,00,22
666743500,00000287,false,0,8,27,10,27,10,27,10,00,02
666744000,000006FA,false,0,8,00,4A,4D,46,58,44,47,47
666745800,00000285,false,0,8,00,00,03,0A,80,00,08,10
666747300,000003C2,false,1,8,7F,FF,FF,FF,C8,00,00,00
666747900,00000188,false,0,8,00,00,FF,FF,00,00,00,00
666748300,00000370,false,0,8,05,BE,00,00,00,40,00,00
666748600,00000289,false,0,8,27,10,4E,20,0C,01,11,10
666748900,0000056D,false,0,8,00,00,00,00,00,00,00,80
666749100,0000028B,false,0,8,27,10,4E,20,0C,01,01,10
666749400,0000056F,false,0,8,00,00,00,00,00,00,00,80
666749900,00000424,false,0,8,05,7F,00,10,00,10,00,00
666750700,00000373,false,0,8,29,29,7F,BC,07,D8,80,12
666751600,00000288,false,0,8,27,10,4E,20,0C,01,01,10
666751900,00000388,false,0,8,01,00,00,00,00,00,00,02
666750900,00000671,false,1,8,00,30,42,42,42,42,42,FF
666751100,00000631,false,1,8,00,30,42,42,42,42,42,FF
666751400,00000621,false,1,8,00,30,42,42,42,42,42,FF
666751600,00000632,false,1,8,0F,84,0F,82,0F,85,0F,85
666751900,00000611,false,1,8,00,30,42,42,42,42,42,FF
666752100,00000622,false,1,8,0F,81,0F,87,0F,85,0F,87
666752300,00000612,false,1,8,0F,82,0F,87,0F,84,0F,82
666752600,00000623,false,1,8,0F,87,0F,88,0F,84,0F,81
666752800,00000613,false,1,8,0F,85,0F,85,0F,8A,0F,81
666752100,0000056C,false,0,8,00,00,00,00,00,00,00,80
666752800,00000362,false,0,8,00,00,00,00,00,00,00,00
666753300,00000287,false,0,8,27,10,27,10,27,10,00,02
666753100,00000624,false,1,8,FF,FF,FF,FF,FF,FF,FF,FF
666753300,00000614,false,1,8,FF,FF,FF,FF,FF,FF,FF,FF
666753600,00000633,false,1,8,0F,84,0F,85,0F,85,0F,85
666753800,00000641,false,1,8,00,30,42,42,42,42,42,FF
666754100,00000634,false,1,8,FF,FF,FF,FF,FF,FF,FF,FF
666754300,00000642,false,1,8,0F,88,0F,88,0F,8A,0F,87
666754500,00000651,false,1,8,00,30,42,42,42,42,42,FF
666754800,00000643,false,1,8,0F,87,0F,87,0F,81,0F,85
666755000,00000652,false,1,8,0F,85,0F,84,0F,87,0F,88
666755300,00000644,false,1,8,FF,FF,FF,FF,FF,FF,FF,FF
666755500,00000653,false,1,8,0F,84,0F,85,0F,84,0F,85
666755100,00000377,false,0,8,05,02,00,05,3C,3F,39,20
666755800,00000285,false,0,8,00,00,03,0A,80,00,08,10
666755700,00000672,false,1,8,0F,84,0F,82,0F,85,0F,85
666756000,00000654,false,1,8,FF,FF,FF,FF,FF,FF,FF,FF
666756200,00000673,false,1,8,0F,7E,0F,82,0F,82,0F,7E
666756500,00000681,false,1,8,00,30,42,42,42,42,42,FF
666756700,00000674,false,1,8,FF,FF,FF,FF,FF,FF,FF,FF
666757000,00000682,false,1,8,0F,81,0F,81,0F,88,0F,84
666757200,000003C2,false,1,8,80,00,00,01,C8,00,00,00
666757500,00000683,false,1,8,0F,87,0F,82,0F,85,0F,84
666757700,00000691,false,1,8,00,30,42,42,42,42,42,FF
666758600,00000289,false,0,8,27,10,4E,20,0C,01,11,10
666758900,00000732,false,0,8,03,E8,03,E8,64,64,02,81
666759100,0000028B,false,0,8,27,10,4E,20,0C,01,01,10
666757900,000006A1,false,1,8,00,30,42,42,42,42,42,FF
666758200,00000684,false,1,8,FF,FF,FF,FF,FF,FF,FF,FF
666758400,00000692,false,1,8,0F,84,0F,8A,0F,82,0F,84
666758700,000006A2,false,1,8,0F,82,0F,82,0F,7F,0F,7F
666758900,00000693,false,1,8,0F,82,0F,85,0F,85,0F,88
666759100,000006B1,false,1,8,00,30,42,42,42,42,42,FF
666759400,00000694,false,1,8,FF,FF,FF,FF,FF,FF,FF,FF
666759600,000006A3,false,1,8,0F,82,0F,84,0F,81,0F,7F
666759900,000006B2,false,1,8,0F,85,0F,84,0F,84,0F,85
666760100,000006A4,false,1,8,FF,FF,FF,FF,FF,FF,FF,FF
666760400,000006B3,false,1,8,0F,87,0F,85,0F,84,0F,87
666759300,00000154,false,0,8,61,FF,61,61,0A,07,6C,78
666759600,00000733,false,0,8,37,37,37,38,10,B0,A1,38
666759800,00000734,false,0,8,03,E8,03,E8,64,64,37,37
666760000,00000735,false,0,8,38,00,38,00,10,B0,A1,37
666760700,00000373,false,0,8,29,29,7F,BC,07,D8,80,12
666761700,00000288,false,0,8,27,10,4E,20,0C,01,01,10
666760800,000003C3,false,1,8,09,CE,00,00,03,00,00,00
666761000,000006B4,false,1,8,FF,FF,FF,FF,FF,FF,FF,FF
666761900,0000075A,false,0,8,03,E8,03,E8,64,64,37,38
666762200,0000075B,false,0,8,38,00,38,00,10,B2,A1,38
666762800,00000362,false,0,8,00,00,00,00,00,00,00,00
666763300,00000287,false,0,8,27,10,27,10,27,10,00,02
666765100,0000038A,false,0,8,3E,39,00,00,04,00,00,00
666765800,00000285,false,0,8,00,00,03,0A,80,00,08,10
666767100,000003C2,false,1,8,7F,FF,FF,FE,C8,00,00,00
666768300,00000370,false,0,8,05,BE,00,00,00,40,00,00
666768600,00000289,false,0,8,27,10,4E,20,0C,01,11,10
666768900,0000029A,false,0,8,02,38,36,37,FF,FF,FF,FF
666769100,0000028B,false,0,8,27,10,4E,20,0C,01,01,10
666770700,00000373,false,0,8,BC,BB,7F,BC,0C,6A,80,12
666771600,00000288,false,0,8,27,10,4E,20,0C,01,01,10
666772700,00000362,false,0,8,00,00,00,00,00,00,00,00
666773200,00000287,false,0,8,27,10,27,10,27,10,00,02
666775000,00000377,false,0,8,05,02,00,05,3C,3F,39,20
666775700,00000374,false,0,8,0A,8B,5B,00,42,42,00,30
666776000,00000285,false,0,8,00,00,03,0A,80,00,08,10
666777100,000003C2,false,1,8,80,00,00,01,C8,00,00,00
666777900,00000185,false,0,8,00,00,0B,00,00,00,00,00
666778600,00000289,false,0,8,27,10,4E,20,0C,01,11,10
666778900,00000566,false,0,8,00,8A,08,00,00,00,00,80
666779100,0000028B,false,0,8,27,10,4E,20,0C,01,01,10
666779300,00000732,false,0,8,03,E8,03,E8,64,64,02,81
666779600,0000056A,false,0,8,00,8A,08,00,00,00,00,80
666780000,00000734,false,0,8,03,E8,03,E8,64,64,37,37
666780700,00000373,false,0,8,BC,BB,7F,BC,0C,6A,80,12
666781700,00000288,false,0,8,27,10,4E,20,0C,01,01,10
666781900,00000564,false,0,8,00,8A,A8,00,00,00,00,80
666782200,0000075A,false,0,8,03,E8,03,E8,64,64,37,38
666782600,00000362,false,0,8,00,00,00,00,00,00,00,00
666783200,00000287,false,0,8,27,10,27,10,27,10,00,02
666785000,00000389,false,0,8,00,00,00,39,39,00,00,00
666785700,00000375,false,0,8,0F,0F,00,01,F4,00,00,00
666786000,00000285,false,0,8,00,00,03,0A,80,00,08,10
666787100,000003C2,false,1,8,80,00,00,00,C8,00,00,00
666788200,00000370,false,0,8,05,BE,00,00,00,40,00,00
666788600,00000289,false,0,8,27,10,4E,20,0C,01,11,10
666788900,00000567,false,0,8,80,00,00,00,00,00,00,00
666789100,0000028B,false,0,8,27,10,4E,20,0C,01,01,10
666789400,0000056B,false,0,8,80,00,00,00,00,00,00,00
666789900,00000424,false,0,8,05,7F,00,10,00,10,00,00
666790700,00000373,false,0,8,BC,BB,7F,BC,0C,6A,80,12
666790900,00000671,false,1,8,00,30,42,42,42,42,42,FF
666791100,00000631,false,1,8,00,30,42,42,42,42,42,FF
666791300,00000621,false,1,8,00,30,42,43,42,42,42,FF
666791600,00000632,false,1,8,0F,84,0F,82,0F,85,0F,85
666791800,00000611,false,1,8,00,30,42,42,42,42,42,FF
666792100,00000622,false,1,8,0F,81,0F,87,0F,85,0F,87
666791600,00000288,false,0,8,27,10,4E,20,0C,01,01,10
666791900,00000565,false,0,8,80,00,00,00,00,00,00,00
666792700,00000362,false,0,8,00,00,00,00,00,00,00,00
666792300,00000612,false,1,8,0F,82,0F,87,0F,84,0F,81
666792600,00000623,false,1,8,0F,87,0F,88,0F,84,0F,81
666792800,00000613,false,1,8,0F,85,0F,87,0F,8A,0F,81
666793100,00000624,false,1,8,FF,FF,FF,FF,FF,FF,FF,FF
666793300,00000614,false,1,8,FF,FF,FF,FF,FF,FF,FF,FF
666793500,00000633,false,1,8,0F,84,0F,87,0F,85,0F,85
666793800,00000641,false,1,8,00,30,42,42,42,42,42,FF
666794000,00000634,false,1,8,FF,FF,FF,FF,FF,FF,FF,FF
666794300,00000642,false,1,8,0F,88,0F,88,0F,8A,0F,87
666794500,00000651,false,1,8,00,30,42,42,42,42,42,FF
666793200,00000287,false,0,8,27,10,27,10,27,10,00,02
666793400,000005A1,false,0,8,00,00,00,20,00,00,00,22
666795000,00000377,false,0,8,05,02,00,05,3C,3F,39,20
666795700,00000285,false,0,8,00,00,03,0A,80,00,08,10
666794700,00000643,false,1,8,0F,87,0F,87,0F,81,0F,85
666795000,00000652,false,1,8,0F,85,0F,84,0F,87,0F,88
666795200,00000644,false,1,8,FF,FF,FF,FF,FF,FF,FF,FF
666795500,00000653,false,1,8,0F,84,0F,85,0F,84,0F,85
666795700,00000672,false,1,8,0F,84,0F,82,0F,85,0F,85
666796000,00000654,false,1,8,FF,FF,FF,FF,FF,FF,FF,FF
666796200,00000673,false,1,8,0F,7E,0F,82,0F,82,0F,7E
666796400,00000681,false,1,8,00,30,42,42,42,42,42,FF
666796700,00000674,false,1,8,FF,FF,FF,FF,FF,FF,FF,FF
666796900,00000682,false,1,8,0F,81,0F,81,0F,88,0F,84
666797200,000003C2,false,1,8,80,00,00,01,C8,00,00,00
666797400,00000683,false,1,8,0F,87,0F,82,0F,85,0F,84
666797600,00000691,false,1,8,00,30,42,42,42,42,42,FF
666797900,000006A1,false,1,8,00,30,42,42,42,43,42,FF
666798100,00000684,false,1,8,FF,FF,FF,FF,FF,FF,FF,FF
666798400,00000692,false,1,8,0F,84,0F,8A,0F,82,0F,84
666798600,000006A2,false,1,8,0F,82,0F,82,0F,7E,0F,7F
666798900,00000693,false,1,8,0F,82,0F,85,0F,85,0F,88
666799100,000006B1,false,1,8,00,30,42,42,42,42,42,FF
666799400,00000694,false,1,8,FF,FF,FF,FF,FF,FF,FF,FF
666799600,000006A3,false,1,8,0F,81,0F,84,0F,81,0F,7F
666798600,00000289,false,0,8,27,10,4E,20,0C,01,11,10
666798900,0000056D,false,0,8,00,00,00,00,00,00,00,80
666799100,0000028B,false,0,8,27,10,4E,20,0C,01,01,10
666799400,00000732,false,0,8,03,E8,03,E8,64,64,02,81
666799600,0000056F,false,0,8,00,00,00,00,00,00,00,80
666799900,00000734,false,0,8,03,E8,03,E8,64,64,37,37
666799800,000006B2,false,1,8,0F,85,0F,84,0F,84,0F,87
666800100,000006A4,false,1,8,FF,FF,FF,FF,FF,FF,FF,FF
666800300,000006B3,false,1,8,0F,87,0F,85,0F,84,0F,87
666800700,000003C3,false,1,8,09,CE,00,00,03,00,00,00
666801000,000006B4,false,1,8,FF,FF,FF,FF,FF,FF,FF,FF
666800700,00000373,false,0,8,BC,BB,7F,BC,0C,6A,80,12
666801600,00000288,false,0,8,27,10,4E,20,0C,01,01,10
666801900,0000056C,false,0,8,00,00,00,00,00,00,00,80
666802100,0000075A,false,0,8,03,E8,03,E8,64,64,37,38
666802700,00000362,false,0,8,00,00,00,00,00,00,00,00
666803200,00000287,false,0,8,27,10,27,10,27,10,00,02
666805000,00000569,false,0,8,0A,80,00,00,00,00,00,00
666805700,00000285,false,0,8,00,00,03,0A,80,00,08,10
666807000,000003C2,false,1,8,80,00,00,00,C8,00,00,00
666808200,00000370,false,0,8,05,BE,00,00,00,40,00,00
666808600,00000289,false,0,8,27,10,4E,20,0C,01,11,10
666808900,0000028B,false,0,8,27,10,4E,20,0C,01,01,10
666810700,00000371,false,0,8,00,00,00,00,00,00,00,00
666810900,00000373,false,0,8,BC,BB,7F,BC,0C,6A,80,12
666811100,00000207,false,0,8,08,00,00,00,08,10,00,00
666811600,00000288,false,0,8,27,10,4E,20,0C,01,01,10
666812700,00000362,false,0,8,00,00,00,00,00,00,00,00
666813100,00000287,false,0,8,27,10,27,10,27,10,00,02
666815000,00000377,false,0,8,05,02,00,05,3C,3F,39,20
666815600,00000285,false,0,8,00,00,03,0A,80,00,08,10
666817000,000003C2,false,1,8,80,00,00,00,C8,00,00,00
666818100,00000286,false,0,8,00,00,00,37,00,00,0A,00
666818600,00000289,false,0,8,27,10,4E,20,0C,01,11,10
666818900,00000299,false,0,8,37,38,41,3C,38,00,00,00
666819100,0000028B,false,0,8,27,10,4E,20,0C,01,01,10
666819400,00000732,false,0,8,03,E8,03,E8,64,64,02,81
666819600,0000029B,false,0,8,38,37,42,37,39,0A,00,38
666819900,00000734,false,0,8,03,E8,03,E8,64,64,37,37
666820700,00000373,false,0,8,BC,BB,7F,BC,0C,6A,80,12
666821600,00000288,false,0,8,27,10,4E,20,0C,01,01,10
666821900,00000298,false,0,8,38,38,41,37,39,00,00,38
666822100,0000075A,false,0,8,03,E8,03,E8,64,64,37,38
666822500,00000362,false,0,8,00,00,00,00,00,00,00,00
666823100,00000287,false,0,8,27,10,27,10,27,10,00,02
666825000,00000568,false,0,8,00,02,80,00,00,00,08,80
666825600,00000285,false,0,8,00,00,03,0A,80,00,08,10
666827000,000003C2,false,1,8,80,00,00,00,C8,00,00,00
666828100,00000370,false,0,8,05,BE,00,00,00,40,00,00
666828500,00000289,false,0,8,27,10,4E,20,0C,01,11,10
666828800,00000566,false,0,8,00,8A,08,00,00,00,00,80
666829000,0000028B,false,0,8,27,10,4E,20,0C,01,01,10
666829300,0000056A,false,0,8,00,8A,08,00,00,00,00,80
666829800,00000424,false,0,8,05,7F,00,10,00,10,00,00
666830600,00000373,false,0,8,BC,BB,7F,BC,0C,6A,80,12
666830900,00000671,false,1,8,00,30,42,42,42,42,42,FF
666831100,00000631,false,1,8,00,30,42,42,42,42,42,FF
666831300,00000621,false,1,8,00,30,42,43,42,42,42,FF
666831600,00000288,false,0,8,27,10,4E,20,0C,01,01,10
666831900,00000564,false,0,8,00,8A,A8,00,00,00,00,80
666831600,00000632,false,1,8,0F,84,0F,82,0F,85,0F,85
666831800,00000611,false,1,8,00,30,42,42,42,42,42,FF
666832000,00000622,false,1,8,0F,81,0F,87,0F,85,0F,87
666832300,00000612,false,1,8,0F,82,0F,87,0F,84,0F,82
666832500,00000623,false,1,8,0F,87,0F,88,0F,84,0F,81
666832800,00000613,false,1,8,0F,85,0F,85,0F,88,0F,81
666833000,00000624,false,1,8,FF,FF,FF,FF,FF,FF,FF,FF
666832600,00000362,false,0,8,01,00,10,04,00,00,00,00
666833100,00000287,false,0,8,27,10,27,10,27,10,00,02
666833300,00000614,false,1,8,FF,FF,FF,FF,FF,FF,FF,FF
666833500,00000633,false,1,8,0F,84,0F,85,0F,85,0F,85
666833700,00000641,false,1,8,00,30,42,42,42,42,42,FF
666834000,00000634,false,1,8,FF,FF,FF,FF,FF,FF,FF,FF
666834200,00000642,false,1,8,0F,88,0F,88,0F,88,0F,87
666834500,00000651,false,1,8,00,30,42,42,42,42,42,FF
666834700,00000643,false,1,8,0F,87,0F,87,0F,81,0F,85
666835000,00000377,false,0,8,05,02,00,05,3C,3F,39,20
666835600,00000285,false,0,8,00,00,03,0A,80,00,08,10
666834900,00000652,false,1,8,0F,85,0F,84,0F,87,0F,88
666835200,00000644,false,1,8,FF,FF,FF,FF,FF,FF,FF,FF
666835400,00000653,false,1,8,0F,84,0F,85,0F,85,0F,85
666835700,00000672,false,1,8,0F,84,0F,82,0F,85,0F,85
666835900,00000654,false,1,8,FF,FF,FF,FF,FF,FF,FF,FF
666836200,00000673,false,1,8,0F,7E,0F,81,0F,82,0F,7E
666836400,00000681,false,1,8,00,30,42,42,42,42,42,FF
666836700,00000674,false,1,8,FF,FF,FF,FF,FF,FF,FF,FF
666836900,00000682,false,1,8,0F,82,0F,81,0F,88,0F,84
666837100,000003C2,false,1,8,80,00,00,00,C8,00,00,00
666837400,00000683,false,1,8,0F,87,0F,82,0F,85,0F,84
666837600,00000691,false,1,8,00,30,42,42,42,42,42,FF
666837900,000006A1,false,1,8,00,30,42,42,42,42,42,FF
666838100,00000684,false,1,8,FF,FF,FF,FF,FF,FF,FF,FF
666838300,00000692,false,1,8,0F,84,0F,8A,0F,82,0F,84
666838600,000006A2,false,1,8,0F,82,0F,82,0F,7F,0F,7F
666838800,00000693,false,1,8,0F,82,0F,85,0F,85,0F,88
666839100,000006B1,false,1,8,00,30,42,42,42,42,42,FF
666839300,00000694,false,1,8,FF,FF,FF,FF,FF,FF,FF,FF
666838500,00000289,false,0,8,27,10,4E,20,0C,01,11,10
666838800,00000567,false,0,8,80,00,00,00,00,00,00,00
666839000,0000028B,false,0,8,27,10,4E,20,0C,01,01,10
666839300,00000732,false,0,8,03,E8,03,E8,64,64,02,81
666839500,0000056B,false,0,8,80,00,00,00,00,00,00,00
666839900,00000734,false,0,8,03,E8,03,E8,64,64,37,37
666839600,000006A3,false,1,8,0F,82,0F,84,0F,81,0F,7F
666839800,000006B2,false,1,8,0F,85,0F,84,0F,84,0F,85
666840100,000006A4,false,1,8,FF,FF,FF,FF,FF,FF,FF,FF
666840300,000006B3,false,1,8,0F,87,0F,85,0F,84,0F,87
666840700,000003C3,false,1,8,09,CE,00,00,03,00,00,00
666840900,000006B4,false,1,8,FF,FF,FF,FF,FF,FF,FF,FF
666840600,00000373,false,0,8,BC,BB,7F,BC,0C,6A,80,12
666841500,00000288,false,0,8,27,10,4E,20,0C,01,01,10
666841800,00000565,false,0,8,80,00,00,00,00,00,00,00
666842100,0000075A,false,0,8,03,E8,03,E8,64,64,37,38
666842600,00000362,false,0,8,01,00,10,04,00,00,00,00
666843000,00000287,false,0,8,27,10,27,10,27,10,00,02
666843300,000005A1,false,0,8,00,00,00,20,00,00,00,22
666843700,000006FA,false,0,8,01,32,57,4B,5A,30,30,30
666845000,00000563,false,0,8,00,00,00,02,02,00,00,00
666845600,00000285,false,0,8,00,00,03,0A,80,00,08,10
666847100,000003C2,false,1,8,7F,FF,FF,FE,C8,00,00,00
666847800,00000188,false,0,8,00,00,FF,FF,00,00,00,00
666848000,00000370,false,0,8,05,BE,00,00,00,40,00,00
666848600,00000289,false,0,8,27,10,4E,20,0C,01,11,10
666848800,0000056D,false,0,8,00,00,00,00,00,00,00,80
666849100,0000028B,false,0,8,27,10,4E,20,0C,01,01,10
666849300,0000056F,false,0,8,00,00,00,00,00,00,00,80
666850600,00000373,false,0,8,BC,BB,7F,BC,0C,6A,80,12
666851500,00000288,false,0,8,27,10,4E,20,0C,01,01,10
666851800,00000388,false,0,8,01,00,00,00,00,00,00,02
666852000,0000056C,false,0,8,00,00,00,00,00,00,00,80
666852600,00000362,false,0,8,01,00,10,04,00,00,00,00
666853000,00000287,false,0,8,27,10,27,10,27,10,00,02
666855000,00000377,false,0,8,05,00,00,05,3C,3F,39,20
666855500,00000285,false,0,8,00,00,03,0A,80,00,08,10
666857100,000003C2,false,1,8,80,00,00,03,C8,00,00,00
666858500,00000289,false,0,8,27,10,4E,20,0C,01,11,10
666858800,00000732,false,0,8,03,E8,03,E8,64,64,02,81
666859000,0000028B,false,0,8,27,10,4E,20,0C,01,01,10
666859300,00000154,false,0,8,61,FF,61,61,0A,07,6C,78
666859500,00000733,false,0,8,37,37,37,38,10,B0,A1,38
666859700,00000734,false,0,8,03,E8,03,E8,64,64,37,37
666860000,00000735,false,0,8,38,00,38,00,10,B0,A1,37
666860600,00000373,false,0,8,BC,BB,7F,BC,0C,6A,80,12
666861500,00000288,false,0,8,27,10,4E,20,0C,01,01,10
666861800,0000075A,false,0,8,03,E8,03,E8,64,64,37,38
666862000,0000075B,false,0,8,38,00,38,00,10,B2,A1,38
666862500,00000362,false,0,8,01,00,10,04,00,00,00,00
666863000,00000287,false,0,8,27,10,27,10,27,10,00,02
666865000,0000038A,false,0,8,3E,39,00,00,04,00,00,00
666865500,00000285,false,0,8,00,00,03,0A,80,00,08,10
666867000,000003C2,false,1,8,80,00,00,00,C8,00,00,00
666868000,00000370,false,0,8,05,BE,00,00,00,40,00,00
666868500,00000289,false,0,8,27,10,4E,20,0C,01,11,10
666868800,0000029A,false,0,8,00,4A,4D,46,58,44,47,47
666869000,0000028B,false,0,8,27,10,4E,20,0C,01,01,10
666869900,00000424,false,0,8,05,7D,00,10,00,10,00,00
666870600,00000373,false,0,8,BC,BB,7F,BC,0C,6A,80,16
666870800,00000671,false,1,8,00,30,42,42,42,42,42,FF
666871100,00000631,false,1,8,00,30,42,42,42,42,42,FF
666871300,00000621,false,1,8,00,30,42,43,42,42,42,FF
666871500,00000288,false,0,8,27,10,4E,20,0C,01,01,10
666871500,00000632,false,1,8,0F,84,0F,82,0F,85,0F,85
666871800,00000611,false,1,8,00,30,42,42,42,42,42,FF
666872000,00000622,false,1,8,0F,81,0F,87,0F,85,0F,87
666872300,00000612,false,1,8,0F,82,0F,87,0F,84,0F,82
666872500,00000623,false,1,8,0F,87,0F,88,0F,84,0F,81
666872700,00000613,false,1,8,0F,85,0F,87,0F,8A,0F,81
666872500,00000362,false,0,8,01,00,10,04,00,00,00,00
666873000,00000287,false,0,8,27,10,27,10,27,10,00,02
666873000,00000624,false,1,8,FF,FF,FF,FF,FF,FF,FF,FF
666873200,00000614,false,1,8,FF,FF,FF,FF,FF,FF,FF,FF
666873500,00000633,false,1,8,0F,84,0F,85,0F,85,0F,85
666873700,00000641,false,1,8,00,30,42,42,42,42,42,FF
666874000,00000634,false,1,8,FF,FF,FF,FF,FF,FF,FF,FF
666874200,00000642,false,1,8,0F,88,0F,88,0F,8A,0F,87
666874400,00000651,false,1,8,00,30,42,42,42,42,42,FF
666874700,00000643,false,1,8,0F,87,0F,87,0F,81,0F,85
666874900,00000652,false,1,8,0F,85,0F,84,0F,87,0F,88
666874900,00000377,false,0,8,04,FA,00,05,3C,3F,39,20
666875500,00000285,false,0,8,00,00,03,0A,7F,00,08,10
666875700,00000374,false,0,8,8B,8B,3A,EA,43,42,3F,30
666875200,00000644,false,1,8,FF,FF,FF,FF,FF,FF,FF,FF
666875400,00000653,false,1,8,0F,84,0F,85,0F,84,0F,85
666875700,00000672,false,1,8,0F,84,0F,82,0F,85,0F,85
666875900,00000654,false,1,8,FF,FF,FF,FF,FF,FF,FF,FF
666876100,00000673,false,1,8,0F,7E,0F,82,0F,82,0F,7E
666876400,00000681,false,1,8,00,30,42,42,42,42,42,FF
666876600,00000674,false,1,8,FF,FF,FF,FF,FF,FF,FF,FF
666876900,00000682,false,1,8,0F,82,0F,81,0F,88,0F,84
666877100,000003C2,false,1,8,80,00,00,00,C8,00,00,00
666877400,00000683,false,1,8,0F,87,0F,82,0F,85,0F,84
666877600,00000691,false,1,8,00,30,42,42,42,42,42,FF
666877700,00000185,false,0,8,00,00,0B,00,00,00,00,00
666878500,00000289,false,0,8,27,10,4E,20,0C,01,11,10
666877800,000006A1,false,1,8,00,30,42,42,42,43,42,FF
666878100,00000684,false,1,8,FF,FF,FF,FF,FF,FF,FF,FF
666878300,00000692,false,1,8,0F,84,0F,8A,0F,82,0F,84
666878600,000006A2,false,1,8,0F,82,0F,82,0F,7F,0F,7F
666878800,00000693,false,1,8,0F,82,0F,85,0F,85,0F,88
666879100,000006B1,false,1,8,00,30,42,42,42,42,42,FF
666879300,00000694,false,1,8,FF,FF,FF,FF,FF,FF,FF,FF
666878800,00000566,false,0,8,00,8A,08,00,00,00,00,80
666879000,0000028B,false,0,8,27,10,4E,20,0C,01,01,10
666879300,00000732,false,0,8,03,E8,03,E8,64,64,02,81
666879500,0000056A,false,0,8,00,8A,08,00,00,00,00,80
666879800,00000734,false,0,8,03,E8,03,E8,64,64,37,37
666879500,000006A3,false,1,8,0F,82,0F,84,0F,81,0F,7F
666879800,000006B2,false,1,8,0F,85,0F,84,0F,84,0F,87
666880000,000006A4,false,1,8,FF,FF,FF,FF,FF,FF,FF,FF
666880300,000006B3,false,1,8,0F,87,0F,85,0F,84,0F,87
666880600,000003C3,false,1,8,09,CE,00,00,03,00,00,00
666880600,00000373,false,0,8,BC,BB,7F,BC,0C,6A,80,16
666881300,00000288,false,0,8,27,10,4E,20,0C,01,01,10
666880900,000006B4,false,1,8,FF,FF,FF,FF,FF,FF,FF,FF
666881600,00000564,false,0,8,00,8A,A8,00,00,00,00,80
666881900,0000075A,false,0,8,03,E8,03,E8,64,64,37,38
666882500,00000362,false,0,8,01,00,10,04,00,00,00,00
666883000,00000287,false,0,8,27,10,27,10,27,10,00,02
666884900,00000389,false,0,8,00,00,00,39,39,00,00,00
666885500,00000285,false,0,8,00,00,03,0A,7F,00,08,10
666885700,00000375,false,0,8,08,08,00,1B,12,00,00,00
666887000,000003C2,false,1,8,7F,FF,FF,FC,C8,00,00,00
666887900,00000370,false,0,8,05,BE,00,00,00,40,00,00
666888500,00000289,false,0,8,27,10,4E,20,0C,01,11,10
666888700,00000567,false,0,8,80,00,00,00,00,00,00,00
666889000,0000028B,false,0,8,27,10,4E,20,0C,01,01,10
666889200,0000056B,false,0,8,80,00,00,00,00,00,00,00
666890600,00000373,false,0,8,BC,BB,7F,BC,0C,6A,80,16
666891500,00000288,false,0,8,27,10,4E,20,0C,01,01,10
666891800,00000565,false,0,8,80,00,00,00,00,00,00,00
666892500,00000362,false,0,8,01,00,10,04,00,00,00,00
666892900,00000287,false,0,8,27,10,27,10,27,10,00,02
666893200,000005A1,false,0,8,00,00,00,20,00,00,00,22
666894900,00000377,false,0,8,04,F4,00,05,3C,3F,39,20
666895400,00000285,false,0,8,00,00,03,0A,7F,00,08,10
666896900,000003C2,false,1,8,7F,FF,FF,FD,C8,00,00,00
666898400,00000289,false,0,8,27,10,4E,20,0C,01,11,10
666898700,0000056D,false,0,8,00,00,00,00,00,00,00,80
666898900,0000028B,false,0,8,27,10,4E,20,0C,01,01,10
666899200,00000732,false,0,8,03,E8,03,E8,64,64,02,81
666899400,0000056F,false,0,8,00,00,00,00,00,00,00,80
666899800,00000734,false,0,8,03,E8,03,E8,64,64,37,37
666900600,00000373,false,0,8,BC,BB,7F,BC,0C,6A,80,16
666901500,00000288,false,0,8,27,10,4E,20,0C,01,01,10
666901700,0000056C,false,0,8,00,00,00,00,00,00,00,80
666902000,0000075A,false,0,8,03,E8,03,E8,64,64,37,38
666902300,00000362,false,0,8,01,00,10,04,00,00,00,00
666902900,00000287,false,0,8,27,10,27,10,27,10,00,02
666905400,00000285,false,0,8,00,00,03,0A,7F,00,08,10
666906900,000003C2,false,1,8,80,00,00,04,C8,00,00,00
666907900,00000370,false,0,8,05,BE,00,00,00,40,00,00
666908400,00000289,false,0,8,27,10,4E,20,0C,01,11,10
666908800,0000028B,false,0,8,27,10,4E,20,0C,01,01,10
666909700,00000424,false,0,8,05,7D,00,10,00,10,00,00
666910400,00000371,false,0,8,00,00,00,00,00,00,00,00
666910600,00000373,false,0,8,BC,BB,7F,BC,0C,6A,80,16
666910800,00000671,false,1,8,00,30,42,42,42,42,42,FF
666911000,00000631,false,1,8,00,30,42,42,42,42,42,FF
666911100,00000207,false,0,8,08,00,00,00,08,10,00,00
666911500,00000288,false,0,8,27,10,4E,20,0C,01,01,10
666911300,00000621,false,1,8,00,30,42,43,42,42,42,FF
666911500,00000632,false,1,8,0F,84,0F,82,0F,84,0F,85
666911700,00000611,false,1,8,00,30,42,42,42,42,42,FF
666912000,00000622,false,1,8,0F,81,0F,87,0F,85,0F,87
666912200,00000612,false,1,8,0F,82,0F,87,0F,84,0F,81
666912500,00000623,false,1,8,0F,87,0F,88,0F,84,0F,81
666912700,00000613,false,1,8,0F,85,0F,85,0F,8A,0F,82
666912500,00000362,false,0,8,01,00,10,04,00,00,00,00
666912900,00000287,false,0,8,27,10,27,10,27,10,00,02
666913000,00000624,false,1,8,FF,FF,FF,FF,FF,FF,FF,FF
666913200,00000614,false,1,8,FF,FF,FF,FF,FF,FF,FF,FF
666913500,00000633,false,1,8,0F,84,0F,85,0F,87,0F,85
666913700,00000641,false,1,8,00,30,42,42,42,42,42,FF
666913900,00000634,false,1,8,FF,FF,FF,FF,FF,FF,FF,FF
666914200,00000642,false,1,8,0F,88,0F,88,0F,8A,0F,87
666914400,00000651,false,1,8,00,30,42,42,42,42,42,FF
666914600,00000643,false,1,8,0F,87,0F,88,0F,81,0F,85
666914900,00000652,false,1,8,0F,84,0F,84,0F,87,0F,88
666914900,00000377,false,0,8,04,F0,00,05,3C,3F,39,20
666915400,00000285,false,0,8,00,00,03,0A,7F,00,08,10
666915100,00000644,false,1,8,FF,FF,FF,FF,FF,FF,FF,FF
666915400,00000653,false,1,8,0F,84,0F,85,0F,84,0F,85
666915600,00000672,false,1,8,0F,84,0F,82,0F,85,0F,85
666915900,00000654,false,1,8,FF,FF,FF,FF,FF,FF,FF,FF
666916100,00000673,false,1,8,0F,7E,0F,81,0F,82,0F,7E
666916400,00000681,false,1,8,00,30,42,42,42,42,42,FF
666916600,00000674,false,1,8,FF,FF,FF,FF,FF,FF,FF,FF
666916900,000003C2,false,1,8,7F,FF,FF,FE,C8,00,00,00
666917100,00000682,false,1,8,0F,82,0F,81,0F,88,0F,84
666917300,00000691,false,1,8,00,30,42,42,42,42,42,FF
666917600,000006A1,false,1,8,00,30,42,42,42,43,42,FF
666917800,00000683,false,1,8,0F,87,0F,82,0F,85,0F,84
666918100,00000692,false,1,8,0F,84,0F,8A,0F,82,0F,84
666918300,00000684,false,1,8,FF,FF,FF,FF,FF,FF,FF,FF
666917800,00000286,false,0,8,00,00,00,37,00,00,0A,00
666918500,00000289,false,0,8,27,10,4E,20,0C,01,11,10
666918700,00000299,false,0,8,37,38,41,3C,38,00,00,00
666918900,0000028B,false,0,8,27,10,4E,20,0C,01,01,10
666919200,00000732,false,0,8,03,E8,03,E8,64,64,02,81
666919400,0000029B,false,0,8,38,37,42,37,39,0A,00,38
666918500,00000693,false,1,8,0F,82,0F,85,0F,85,0F,87
666918800,000006A2,false,1,8,0F,82,0F,82,0F,7F,0F,7F
666919000,00000694,false,1,8,FF,FF,FF,FF,FF,FF,FF,FF
666919300,000006A3,false,1,8,0F,81,0F,84,0F,82,0F,7F
666919500,000006B1,false,1,8,00,30,42,42,42,42,42,FF
666919800,000006A4,false,1,8,FF,FF,FF,FF,FF,FF,FF,FF
666920000,000006B2,false,1,8,0F,85,0F,84,0F,84,0F,85
666919800,00000734,false,0,8,03,E8,03,E8,64,64,37,37
666920500,00000373,false,0,8,BC,BB,7F,BC,0C,6A,80,16
666920500,000006B3,false,1,8,0F,87,0F,84,0F,84,0F,87
666920800,000003C3,false,1,8,09,CE,00,00,03,00,00,00
666921000,000006B4,false,1,8,FF,FF,FF,FF,FF,FF,FF,FF
666921400,00000288,false,0,8,27,10,4E,20,0C,01,01,10
666921700,00000298,false,0,8,38,38,41,37,39,00,00,38
666921900,0000075A,false,0,8,03,E8,03,E8,64,64,37,38
666922500,00000362,false,0,8,01,00,10,04,00,00,00,00
666922800,00000287,false,0,8,27,10,27,10,27,10,00,02
666925300,00000285,false,0,8,00,00,03,0A,7F,00,08,10
666926800,000003C2,false,1,8,80,00,00,00,C8,00,00,00
666927800,00000370,false,0,8,05,BE,00,00,00,40,00,00
666928400,00000289,false,0,8,27,10,4E,20,0C,01,11,10
666928700,00000566,false,0,8,00,8A,08,00,00,00,00,80
666929000,0000028B,false,0,8,27,10,4E,20,0C,01,01,10
666929200,0000056A,false,0,8,00,8A,08,00,00,00,00,80
666930500,00000373,false,0,8,BC,BB,7F,BC,0C,6A,80,16
666931500,00000288,false,0,8,27,10,4E,20,0C,01,01,10
666931800,00000564,false,0,8,00,8A,A8,00,00,00,00,80
666932500,00000362,false,0,8,01,00,10,04,00,00,00,00
666932800,00000287,false,0,8,27,10,27,10,27,10,00,02
666934900,00000377,false,0,8,04,EE,00,05,3C,3F,39,20
666935300,00000285,false,0,8,00,00,03,0A,7F,00,08,10
666936800,000003C2,false,1,8,7F,FF,FF,FD,C8,00,00,00
666938400,00000289,false,0,8,27,10,4E,20,0C,01,11,10
666938700,00000567,false,0,8,80,00,00,00,00,00,00,00
666939000,0000028B,false,0,8,27,10,4E,20,0C,01,01,10
666939200,00000732,false,0,8,03,E8,03,E8,64,64,02,81
666939400,0000056B,false,0,8,80,00,00,00,00,00,00,00
666939800,00000734,false,0,8,03,E8,03,E8,64,64,37,37
666940500,00000373,false,0,8,BC,BB,7F,BC,0C,6A,80,16
666941300,00000288,false,0,8,27,10,4E,20,0C,01,01,10
666941500,00000565,false,0,8,80,00,00,00,00,00,00,00
666941800,0000075A,false,0,8,03,E8,03,E8,64,64,37,38
666942400,00000362,false,0,8,01,00,10,04,00,00,00,00
666942800,00000287,false,0,8,27,10,27,10,27,10,00,02
666943000,000005A1,false,0,8,00,00,00,20,00,00,00,22
666943300,000006FA,false,0,8,02,38,36,37,00,00,00,00
666945300,00000285,false,0,8,00,00,03,0A,7F,00,08,10
666946800,000003C2,false,1,8,7F,FF,FF,FE,C8,00,00,00
666947600,00000188,false,0,8,00,00,FF,FF,00,00,00,00
666947800,00000370,false,0,8,05,BE,00,00,00,40,00,00
666948400,00000289,false,0,8,27,10,4E,20,0C,01,11,10
666948700,0000056D,false,0,8,00,00,00,00,00,00,00,80
666948900,0000028B,false,0,8,27,10,4E,20,0C,01,01,10
666949100,0000056F,false,0,8,00,00,00,00,00,00,00,80
666949700,00000424,false,0,8,05,7D,00,10,00,10,00,00
666950500,00000373,false,0,8,BC,BB,7F,BC,0C,6A,80,16
666950800,00000671,false,1,8,00,30,42,42,42,42,42,FF
666951000,00000631,false,1,8,00,30,42,42,42,42,42,FF
666951300,00000672,false,1,8,0F,84,0F,82,0F,85,0F,85
666951400,00000288,false,0,8,27,10,4E,20,0C,01,01,10
666951700,00000388,false,0,8,01,00,00,00,00,00,00,02
666951900,0000056C,false,0,8,00,00,00,00,00,00,00,80
666952400,00000362,false,0,8,01,00,10,04,00,00,00,00
666952700,00000287,false,0,8,27,10,27,10,27,10,00,02
666951500,00000621,false,1,8,00,30,42,43,42,42,42,FF
666951700,00000611,false,1,8,00,30,42,42,42,42,42,FF
666952000,00000622,false,1,8,0F,81,0F,87,0F,85,0F,87
666952200,00000612,false,1,8,0F,82,0F,87,0F,84,0F,81
666952400,00000623,false,1,8,0F,87,0F,88,0F,85,0F,81
666952700,00000613,false,1,8,0F,85,0F,87,0F,8A,0F,81
666952900,00000624,false,1,8,FF,FF,FF,FF,FF,FF,FF,FF
666953200,00000614,false,1,8,FF,FF,FF,FF,FF,FF,FF,FF
666953400,00000632,false,1,8,0F,84,0F,82,0F,85,0F,85
666953700,00000641,false,1,8,00,30,42,42,42,42,42,FF
666953900,00000633,false,1,8,0F,84,0F,85,0F,85,0F,85
666954100,00000642,false,1,8,0F,88,0F,88,0F,88,0F,87
666954400,00000634,false,1,8,FF,FF,FF,FF,FF,FF,FF,FF
666954600,00000643,false,1,8,0F,87,0F,88,0F,81,0F,85
666954800,00000377,false,0,8,04,EE,00,0A,3C,3F,39,20
666955300,00000285,false,0,8,00,00,03,0A,7F,00,08,10
666954900,00000651,false,1,8,00,30,42,42,42,42,42,FF
666955100,00000644,false,1,8,FF,FF,FF,FF,FF,FF,FF,FF
666955400,00000652,false,1,8,0F,84,0F,84,0F,87,0F,88
666955600,00000673,false,1,8,0F,7E,0F,81,0F,82,0F,7E
666955900,00000653,false,1,8,0F,84,0F,85,0F,84,0F,85
666956100,00000674,false,1,8,FF,FF,FF,FF,FF,FF,FF,FF
666956400,00000654,false,1,8,FF,FF,FF,FF,FF,FF,FF,FF
666956600,00000681,false,1,8,00,30,42,42,42,42,42,FF
666956800,000003C2,false,1,8,80,00,00,03,C8,00,00,00
666957100,00000682,false,1,8,0F,82,0F,82,0F,88,0F,84
666957300,00000691,false,1,8,00,30,42,42,42,42,42,FF
666957500,00000683,false,1,8,0F,87,0F,82,0F,85,0F,85
666957800,00000692,false,1,8,0F,84,0F,8A,0F,82,0F,84
666958000,000006A1,false,1,8,00,30,42,42,42,42,42,FF
666958300,00000684,false,1,8,FF,FF,FF,FF,FF,FF,FF,FF
666958500,00000693,false,1,8,0F,82,0F,85,0F,85,0F,87
666958800,000006A2,false,1,8,0F,82,0F,82,0F,7E,0F,7F
666959000,00000694,false,1,8,FF,FF,FF,FF,FF,FF,FF,FF
666958400,00000289,false,0,8,27,10,4E,20,0C,02,11,10
666958600,00000732,false,0,8,03,E8,03,E8,64,64,02,81
666958900,0000028B,false,0,8,27,10,4E,20,0C,01,01,10
666959100,00000154,false,0,8,61,FF,61,61,0A,07,6C,78
666959300,00000733,false,0,8,37,37,37,38,10,B0,A1,38
666959600,00000734,false,0,8,03,E8,03,E8,64,64,37,37
666959800,00000735,false,0,8,38,00,38,00,10,B0,A1,37
666960500,00000373,false,0,8,BC,BB,7F,BC,0C,6A,80,16
666959300,000006A3,false,1,8,0F,82,0F,84,0F,82,0F,7F
666959500,000006B1,false,1,8,00,30,42,42,42,42,42,FF
666959800,000006A4,false,1,8,FF,FF,FF,FF,FF,FF,FF,FF
666960000,000006B2,false,1,8,0F,85,0F,84,0F,84,0F,85
666960500,000006B3,false,1,8,0F,87,0F,85,0F,84,0F,87
666960700,000003C3,false,1,8,09,CE,00,00,03,00,00,00
666961000,000006B4,false,1,8,FF,FF,FF,FF,FF,FF,FF,FF
666961400,00000288,false,0,8,27,10,4E,20,0C,01,01,10
666961700,00000676,false,0,8,00,00,00,00,00,00,00,00
666961900,0000075A,false,0,8,03,E8,03,E8,64,64,37,38
666962100,0000075B,false,0,8,38,00,38,00,10,B2,A1,38
666962400,00000362,false,0,8,01,00,10,04,00,00,00,00
666962700,00000287,false,0,8,27,10,27,10,27,10,00,02
666964800,0000038A,false,0,8,3E,39,00,00,04,00,00,00
666965200,00000285,false,0,8,00,00,03,0A,7E,00,08,10
666966700,000003C2,false,1,8,80,00,00,00,C8,00,00,00
666967700,00000370,false,0,8,05,BE,00,00,00,40,00,00
666968400,00000289,false,0,8,27,10,4E,20,0C,02,11,10
666968600,0000029A,false,0,8,01,32,57,4B,5A,30,30,30
666968900,0000028B,false,0,8,27,10,4E,20,0C,01,01,10
666970500,00000373,false,0,8,BC,BB,7F,BC,0C,6A,80,16
666971300,00000288,false,0,8,27,10,4E,20,0C,01,01,10
666971600,00000677,false,0,8,00,00,00,00,00,00,00,00
666972400,00000362,false,0,8,01,00,10,04,00,00,00,00
666972700,00000287,false,0,8,27,10,27,10,27,10,00,02
666974800,00000377,false,0,8,04,EE,00,0A,3C,3F,39,20
666975200,00000285,false,0,8,00,00,03,0A,7E,00,08,10
666975500,00000374,false,0,8,8B,8B,3A,EB,43,42,3F,30
666976700,000003C2,false,1,8,7F,FF,FF,F9,C8,00,00,00
666977500,00000185,false,0,8,00,00,0B,00,00,00,00,00
666978400,00000289,false,0,8,27,10,4E,20,0C,02,11,10
666978600,00000566,false,0,8,00,8A,08,00,00,00,00,80
666978800,0000028B,false,0,8,27,10,4E,20,0C,01,01,10
666979100,00000732,false,0,8,03,E8,03,E8,64,64,02,81
666979300,0000056A,false,0,8,00,8A,08,00,00,00,00,80
666979700,00000734,false,0,8,03,E8,03,E8,64,64,37,37
666980500,00000373,false,0,8,BC,BB,7F,BC,0C,6A,80,16
666981300,00000288,false,0,8,27,10,4E,20,0C,01,01,10
666981600,00000571,false,0,8,00,00,00,00,00,00,00,00
666981800,00000564,false,0,8,00,8A,A8,00,00,00,00,80
666982100,0000075A,false,0,8,03,E8,03,E8,64,64,37,38
666982300,00000362,false,0,8,01,00,10,04,00,00,00,00
666982700,00000287,false,0,8,27,10,27,10,27,10,00,02
666984800,00000389,false,0,8,00,00,00,39,39,00,00,00
666985200,00000285,false,0,8,00,00,03,0A,7E,00,08,10
666985500,00000375,false,0,8,08,08,00,1B,12,00,00,00
666986800,000003C2,false,1,8,80,00,00,00,C8,00,00,00
666987600,00000370,false,0,8,05,BE,00,00,00,40,00,00
666988400,00000289,false,0,8,27,10,4E,20,0C,01,11,10
666988700,00000567,false,0,8,80,00,00,00,00,00,00,00
666988900,0000028B,false,0,8,27,10,4E,20,0C,01,01,10
666989200,0000056B,false,0,8,80,00,00,00,00,00,00,00
666989700,00000424,false,0,8,05,7D,00,10,00,10,00,00
666990400,00000373,false,0,8,BC,BB,7F,BC,0C,6A,80,16
666990800,00000671,false,1,8,00,30,42,42,42,42,42,FF
666991000,00000631,false,1,8,00,30,42,42,42,42,42,FF
666991200,00000672,false,1,8,0F,84,0F,82,0F,85,0F,85
666991400,00000621,false,1,8,00,30,42,43,42,42,42,FF
666991400,00000288,false,0,8,27,10,4E,20,0C,01,01,10
666991600,00000565,false,0,8,80,00,00,00,00,00,00,00
666991700,00000611,false,1,8,00,30,42,42,42,42,42,FF
666991900,00000622,false,1,8,0F,81,0F,87,0F,85,0F,87
666992200,00000612,false,1,8,0F,82,0F,87,0F,84,0F,81
666992400,00000623,false,1,8,0F,87,0F,87,0F,84,0F,81
666992300,00000362,false,0,8,01,00,10,04,00,00,00,00
666992600,00000287,false,0,8,27,10,27,10,27,10,00,02
666992700,00000613,false,1,8,0F,85,0F,87,0F,88,0F,81
666992900,00000624,false,1,8,FF,FF,FF,FF,FF,FF,FF,FF
666993100,00000614,false,1,8,FF,FF,FF,FF,FF,FF,FF,FF
666993000,000005A1,false,0,8,00,00,00,20,00,00,00,22
666993400,00000632,false,1,8,0F,84,0F,82,0F,84,0F,85
666993600,00000641,false,1,8,00,30,42,42,42,42,42,FF
666993900,00000633,false,1,8,0F,84,0F,87,0F,85,0F,85
666994100,00000642,false,1,8,0F,88,0F,88,0F,8A,0F,87
666994400,00000634,false,1,8,FF,FF,FF,FF,FF,FF,FF,FF
666994800,00000377,false,0,8,04,EE,00,0A,3C,3F,39,20
666994600,00000643,false,1,8,0F,87,0F,88,0F,81,0F,85
666994800,00000651,false,1,8,00,30,42,42,42,42,42,FF
666995100,00000644,false,1,8,FF,FF,FF,FF,FF,FF,FF,FF
666995300,00000652,false,1,8,0F,84,0F,84,0F,87,0F,88
666995200,00000285,false,0,8,00,00,03,0A,7E,00,08,10
666995600,00000673,false,1,8,0F,7E,0F,81,0F,82,0F,7E
666995800,00000653,false,1,8,0F,84,0F,85,0F,84,0F,85
666996100,00000674,false,1,8,FF,FF,FF,FF,FF,FF,FF,FF
666996300,00000654,false,1,8,FF,FF,FF,FF,FF,FF,FF,FF
666996600,00000681,false,1,8,00,30,42,42,42,42,42,FF
666996800,00000691,false,1,8,00,30,42,42,42,42,42,FF
666997000,000003C2,false,1,8,7F,FF,FF,FD,C8,00,00,00
666997300,00000682,false,1,8,0F,81,0F,81,0F,88,0F,84
666997500,00000692,false,1,8,0F,84,0F,8A,0F,82,0F,84
666997800,000006A1,false,1,8,00,30,42,42,42,42,42,FF
666998000,00000683,false,1,8,0F,87,0F,82,0F,85,0F,85
666998200,00000693,false,1,8,0F,82,0F,85,0F,85,0F,88
666998400,00000289,false,0,8,27,10,4E,20,0C,02,11,10
666998600,0000056D,false,0,8,00,00,00,00,00,00,00,80
666998900,0000028B,false,0,8,27,10,4E,20,0C,01,01,10
666998500,00000684,false,1,8,FF,FF,FF,FF,FF,FF,FF,FF
666998700,00000694,false,1,8,FF,FF,FF,FF,FF,FF,FF,FF
666999000,000006A2,false,1,8,0F,82,0F,82,0F,7E,0F,7F
666999200,000006B1,false,1,8,00,30,42,42,42,42,42,FF
666999100,00000732,false,0,8,03,E8,03,E8,64,64,02,81
666999400,0000056F,false,0,8,00,00,00,00,00,00,00,80
666999700,00000734,false,0,8,03,E8,03,E8,64,64,37,37
666999500,000006A3,false,1,8,0F,82,0F,85,0F,81,0F,7F
666999700,000006B2,false,1,8,0F,85,0F,84,0F,84,0F,85
667000000,000006A4,false,1,8,FF,FF,FF,FF,FF,FF,FF,FF
667000500,00000373,false,0,8,BC,BB,7F,BC,0C,6A,80,16
667000200,000006B3,false,1,8,0F,87,0F,85,0F,84,0F,87
667000500,000003C3,false,1,8,09,CE,00,00,03,00,00,00
667000800,000006B4,false,1,8,FF,FF,FF,FF,FF,FF,FF,FF
667001200,00000288,false,0,8,27,10,4E,20,0C,01,01,10
667001400,0000056C,false,0,8,00,00,00,00,00,00,00,80
667001700,0000075A,false,0,8,03,E8,03,E8,64,64,37,38
667002300,00000362,false,0,8,01,00,10,04,00,00,00,00
667002600,00000287,false,0,8,27,10,27,10,27,10,00,02
667004800,00000569,false,0,8,0A,80,00,00,00,00,00,00
667005100,00000285,false,0,8,00,00,03,0A,7E,00,08,10
667006800,000003C2,false,1,8,80,00,00,00,C8,00,00,00
667007600,00000370,false,0,8,05,BE,00,00,00,40,00,00
667008300,00000289,false,0,8,27,10,4E,20,0C,01,11,10
667008600,0000028B,false,0,8,27,10,4E,20,0C,01,01,10
667010100,00000371,false,0,8,00,00,00,00,00,00,00,00
667010400,00000373,false,0,8,BC,BB,7F,BC,0C,6A,80,16
667010800,00000207,false,0,8,08,00,00,00,08,10,0C,00
667011400,00000288,false,0,8,27,10,4E,20,0C,01,01,10
667012400,00000362,false,0,8,01,00,10,04,00,00,00,00
667012600,00000287,false,0,8,27,10,27,10,27,10,00,02
667014800,00000377,false,0,8,04,EC,00,05,3C,3F,39,20
667015100,00000285,false,0,8,00,00,03,0A,7E,00,08,10
667016800,000003C2,false,1,8,80,00,00,00,C8,00,00,00
667017600,00000286,false,0,8,00,00,00,37,00,00,0A,00
667018300,00000289,false,0,8,27,10,4E,20,0C,01,11,10
667018600,00000299,false,0,8,37,38,41,3C,38,00,00,00
667018800,0000028B,false,0,8,27,10,4E,20,0C,01,01,10
667019100,00000732,false,0,8,03,E8,03,E8,64,64,02,81
667019300,0000029B,false,0,8,38,37,42,37,39,0A,00,38
667019600,00000734,false,0,8,03,E8,03,E8,64,64,37,37
667020400,00000373,false,0,8,BC,BB,7F,BC,0C,6A,80,16
667021200,00000288,false,0,8,27,10,4E,20,0C,01,01,10
667021400,00000298,false,0,8,38,38,42,37,39,00,00,38
667021700,0000075A,false,0,8,03,E8,03,E8,64,64,37,38
667022200,00000362,false,0,8,01,00,10,04,00,00,00,00
667022500,00000287,false,0,8,27,10,27,10,27,10,00,02
667024800,00000568,false,0,8,00,02,80,00,00,00,08,80
667025100,00000285,false,0,8,00,00,03,0A,7E,00,08,10
667026700,000003C2,false,1,8,80,00,00,00,C8,00,00,00
667027500,00000370,false,0,8,05,BE,00,00,00,40,00,00
667028300,00000289,false,0,8,27,10,4E,20,0C,01,11,10
667028500,0000028B,false,0,8,27,10,4E,20,0C,01,01,10
667028700,00000566,false,0,8,02,8A,0A,00,A0,A0,A0,8A
667029000,0000056A,false,0,8,02,8A,0A,00,A0,A0,A0,8A
667029200,00000667,false,0,8,01,33,30,30,00,00,00,00
667029400,00000669,false,0,8,01,32,30,30,00,00,00,00
667029700,00000424,false,0,8,05,7D,00,10,00,10,00,00
667030400,00000373,false,0,8,BC,BB,7F,BC,0C,6A,80,16
667030700,00000671,false,1,8,00,30,42,42,42,42,42,FF
667031000,00000631,false,1,8,00,30,42,42,42,42,42,FF
667031200,00000672,false,1,8,0F,84,0F,82,0F,84,0F,85
667031100,00000288,false,0,8,27,10,4E,20,0C,01,01,10
667031400,00000564,false,0,8,02,8A,AA,00,A0,A0,A0,8A
667031700,00000665,false,0,8,01,31,30,30,00,00,00,00
667031400,00000621,false,1,8,00,30,42,43,42,42,42,FF
667031700,00000611,false,1,8,00,30,42,42,42,42,42,FF
667031900,00000622,false,1,8,0F,81,0F,87,0F,85,0F,87
667032100,00000612,false,1,8,0F,82,0F,87,0F,84,0F,81
667032400,00000623,false,1,8,0F,85,0F,88,0F,84,0F,81
667032600,00000613,false,1,8,0F,85,0F,85,0F,88,0F,81
667032200,00000362,false,0,8,01,00,10,04,00,00,00,00
667032500,00000287,false,0,8,27,10,27,10,27,10,00,02
667032900,00000624,false,1,8,FF,FF,FF,FF,FF,FF,FF,FF
667033100,00000614,false,1,8,FF,FF,FF,FF,FF,FF,FF,FF
667033400,00000632,false,1,8,0F,84,0F,82,0F,85,0F,85
667033600,00000641,false,1,8,00,30,42,42,42,42,42,FF
667033800,00000633,false,1,8,0F,84,0F,85,0F,85,0F,85
667034100,00000642,false,1,8,0F,88,0F,88,0F,8A,0F,87
667034300,00000634,false,1,8,FF,FF,FF,FF,FF,FF,FF,FF
667034600,00000643,false,1,8,0F,87,0F,87,0F,81,0F,85
667034800,00000651,false,1,8,00,30,42,42,42,42,42,FF
667034700,00000377,false,0,8,04,EC,00,0A,3C,3F,39,20
667035000,00000285,false,0,8,00,00,03,0A,7E,00,08,10
667035100,00000644,false,1,8,FF,FF,FF,FF,FF,FF,FF,FF
667035300,00000652,false,1,8,0F,84,0F,84,0F,87,0F,88
667035500,00000673,false,1,8,0F,7E,0F,81,0F,82,0F,7E
667035800,00000653,false,1,8,0F,84,0F,85,0F,84,0F,85
667036000,00000674,false,1,8,FF,FF,FF,FF,FF,FF,FF,FF
667036300,00000654,false,1,8,FF,FF,FF,FF,FF,FF,FF,FF
667036500,00000681,false,1,8,00,30,42,42,42,42,42,FF
667036800,000003C2,false,1,8,80,00,00,00,C8,00,00,00
667037000,00000682,false,1,8,0F,81,0F,81,0F,88,0F,84
667037300,00000691,false,1,8,00,30,42,42,42,42,42,FF
667038200,00000289,false,0,8,27,10,4E,20,0C,02,11,10
667038500,0000028B,false,0,8,27,10,4E,20,0C,01,01,10
667038700,00000567,false,0,8,AA,00,00,00,00,A2,00,00
667039000,0000056B,false,0,8,AA,00,00,00,00,A2,00,00
667039200,00000732,false,0,8,03,E8,03,E8,64,64,02,81
667039400,00000734,false,0,8,03,E8,03,E8,64,64,37,37
667037500,00000683,false,1,8,0F,87,0F,82,0F,85,0F,84
667037700,00000692,false,1,8,0F,84,0F,8A,0F,82,0F,84
667038000,000006A1,false,1,8,00,30,42,42,42,43,42,FF
667038200,00000684,false,1,8,FF,FF,FF,FF,FF,FF,FF,FF
667038500,00000693,false,1,8,0F,82,0F,85,0F,85,0F,87
667038700,000006A2,false,1,8,0F,82,0F,82,0F,7F,0F,7F
667039000,00000694,false,1,8,FF,FF,FF,FF,FF,FF,FF,FF
667039200,000006A3,false,1,8,0F,82,0F,84,0F,81,0F,7F
667039400,000006B1,false,1,8,00,30,42,42,42,42,42,FF
667039700,000006A4,false,1,8,FF,FF,FF,FF,FF,FF,FF,FF
667039900,000006B2,false,1,8,0F,85,0F,84,0F,84,0F,85
667040400,000006B3,false,1,8,0F,87,0F,85,0F,84,0F,87
667040400,00000373,false,0,8,BC,BB,7F,BC,0C,6A,80,16
667041100,00000288,false,0,8,27,10,4E,20,0C,01,01,10
667041400,00000565,false,0,8,AA,00,00,00,00,A2,00,00
667041600,0000075A,false,0,8,03,E8,03,E8,64,64,37,38
667042300,00000362,false,0,8,01,00,10,04,00,00,00,00
667040700,000003C3,false,1,8,09,CE,00,00,03,00,00,00
667040900,000006B4,false,1,8,FF,FF,FF,FF,FF,FF,FF,FF
667042500,000006FA,false,0,8,00,4A,4D,46,58,44,47,47
667042800,00000287,false,0,8,27,10,27,10,27,10,00,02
667043000,000005A1,false,0,8,00,00,00,20,00,00,00,22
667044700,00000563,false,0,8,00,20,00,02,02,00,00,00
667045000,00000285,false,0,8,00,00,03,0A,7D,00,08,10
667046600,000003C2,false,1,8,7F,FF,FF,FF,C8,00,00,00
667047400,00000188,false,0,8,00,00,FF,FF,00,00,00,00
667047700,00000370,false,0,8,05,BE,00,00,00,40,00,00
667048300,00000289,false,0,8,27,10,4E,20,0C,02,11,10
667048500,0000028B,false,0,8,27,10,4E,20,0C,01,01,10
667048800,0000056D,false,0,8,28,00,00,20,00,00,28,8A
667049000,0000056F,false,0,8,28,80,02,20,00,00,28,8A
667049200,00000668,false,0,8,01,3D,F2,11,16,00,00,00
667049500,0000066A,false,0,8,01,4B,E4,87,C8,00,00,00
667050400,00000373,false,0,8,BC,BB,7F,BC,0C,6A,80,16
667051100,00000288,false,0,8,27,10,4E,20,0C,01,01,10
667051400,0000056C,false,0,8,28,80,02,20,00,00,28,8A
667051600,00000388,false,0,8,01,00,00,00,00,00,00,02
667051800,00000666,false,0,8,01,26,94,74,99,00,00,00
667052200,00000362,false,0,8,01,00,10,04,00,00,00,00
667052500,00000287,false,0,8,27,10,27,10,27,10,00,02
667054700,00000377,false,0,8,04,EC,00,0A,3C,3F,39,20
667055000,00000285,false,0,8,00,00,03,0A,7D,00,08,10
667056600,000003C2,false,1,8,80,00,00,00,C8,00,00,00
667058200,00000289,false,0,8,27,10,4E,20,0C,02,11,10
667058500,0000028B,false,0,8,27,10,4E,20,0C,01,01,10
667058700,00000732,false,0,8,03,E8,03,E8,64,64,02,81
667058900,00000154,false,0,8,61,61,60,61,0A,07,6C,78
667059200,00000733,false,0,8,37,37,37,38,10,B0,A1,38
667059400,00000734,false,0,8,03,E8,03,E8,64,64,37,37
667059600,00000735,false,0,8,38,00,38,00,10,B0,A1,37
667060400,00000373,false,0,8,BC,BB,7F,BC,0C,6A,80,16
667061100,00000288,false,0,8,27,10,4E,20,0C,01,01,10
667061300,0000075A,false,0,8,03,E8,03,E8,64,64,37,38
667061600,0000075B,false,0,8,38,00,38,00,10,B2,A1,38
667062100,00000362,false,0,8,01,00,10,04,00,00,00,00
667062400,00000287,false,0,8,27,10,27,10,27,10,00,02
667064700,0000038A,false,0,8,3E,39,00,00,04,00,00,00
667065000,00000285,false,0,8,00,00,03,0A,7D,00,08,10
667066500,000003C2,false,1,8,80,00,00,01,C8,00,00,00
667067400,00000370,false,0,8,05,BE,00,00,00,40,00,00
667068200,00000289,false,0,8,27,10,4E,20,0C,02,11,10
667068400,0000028B,false,0,8,27,10,4E,20,0C,01,01,10
667068700,0000029A,false,0,8,02,38,36,37,FF,FF,FF,FF
667069600,00000424,false,0,8,05,7D,00,10,00,10,00,00
667070300,00000373,false,0,8,BC,BB,7F,BC,0C,6A,80,16
667071100,00000288,false,0,8,27,10,4E,20,0C,01,01,10
667070700,00000671,false,1,8,00,30,42,42,42,42,42,FF
667070900,00000631,false,1,8,00,30,42,42,42,42,42,FF
667071200,00000672,false,1,8,0F,84,0F,82,0F,85,0F,85
667071400,00000621,false,1,8,00,30,42,43,42,42,42,FF
667071600,00000611,false,1,8,00,30,42,42,42,42,42,FF
667071900,00000622,false,1,8,0F,81,0F,87,0F,85,0F,87
667072200,00000362,false,0,8,01,00,10,04,00,00,00,00
667072400,00000287,false,0,8,27,10,27,10,27,10,00,02
667072100,00000612,false,1,8,0F,82,0F,87,0F,84,0F,82
667072400,00000623,false,1,8,0F,87,0F,88,0F,84,0F,81
667072600,00000613,false,1,8,0F,85,0F,85,0F,88,0F,81
667072800,00000624,false,1,8,FF,FF,FF,FF,FF,FF,FF,FF
667073100,00000614,false,1,8,FF,FF,FF,FF,FF,FF,FF,FF
667073300,00000632,false,1,8,0F,84,0F,82,0F,85,0F,85
667073600,00000641,false,1,8,00,30,42,42,42,42,42,FF
667073800,00000633,false,1,8,0F,84,0F,85,0F,85,0F,85
667074100,00000642,false,1,8,0F,88,0F,88,0F,8A,0F,87
667074300,00000634,false,1,8,FF,FF,FF,FF,FF,FF,FF,FF
667074500,00000643,false,1,8,0F,87,0F,87,0F,81,0F,85
667074800,00000651,false,1,8,00,30,42,42,42,42,42,FF
667075000,00000644,false,1,8,FF,FF,FF,FF,FF,FF,FF,FF
667074700,00000377,false,0,8,04,EC,00,05,3C,3F,39,20
667074900,00000285,false,0,8,00,00,03,0A,7D,00,08,10
667075300,00000374,false,0,8,8B,8B,3B,EB,43,42,3F,30
667075300,00000652,false,1,8,0F,84,0F,84,0F,87,0F,88
667075500,00000673,false,1,8,0F,7E,0F,82,0F,82,0F,7E
667075800,00000653,false,1,8,0F,84,0F,85,0F,84,0F,85
667076000,00000674,false,1,8,FF,FF,FF,FF,FF,FF,FF,FF
667076300,00000654,false,1,8,FF,FF,FF,FF,FF,FF,FF,FF
667076500,00000681,false,1,8,00,30,42,42,42,42,42,FF
667076700,000003C2,false,1,8,7F,FF,FF,FB,C8,00,00,00
667077000,00000682,false,1,8,0F,82,0F,81,0F,88,0F,84
667077200,00000691,false,1,8,00,30,42,42,42,42,42,FF
667077400,00000185,false,0,8,00,00,0B,00,00,00,00,00
667078200,00000289,false,0,8,27,10,4E,20,0C,02,11,10
667077500,00000683,false,1,8,0F,87,0F,82,0F,85,0F,84
667077700,00000692,false,1,8,0F,84,0F,8A,0F,82,0F,84
667077900,000006A1,false,1,8,00,30,42,42,42,42,42,FF
667078200,00000684,false,1,8,FF,FF,FF,FF,FF,FF,FF,FF
667078400,00000693,false,1,8,0F,82,0F,85,0F,85,0F,88
667078700,000006A2,false,1,8,0F,82,0F,82,0F,7F,0F,7F
667078900,00000694,false,1,8,FF,FF,FF,FF,FF,FF,FF,FF
667078400,0000028B,false,0,8,27,10,4E,20,0C,01,01,10
667078700,00000566,false,0,8,02,8A,0A,00,A0,A0,A0,8A
667078900,0000056A,false,0,8,02,8A,0A,00,A0,A0,A0,8A
667079100,00000732,false,0,8,03,E8,03,E8,64,64,02,81
667079400,00000734,false,0,8,03,E8,03,E8,64,64,37,37
667079200,000006A3,false,1,8,0F,82,0F,84,0F,81,0F,7F
667079400,000006B1,false,1,8,00,30,42,42,42,42,42,FF
667079700,000006A4,false,1,8,FF,FF,FF,FF,FF,FF,FF,FF
667079900,000006B2,false,1,8,0F,85,0F,84,0F,84,0F,87
667080400,000003C3,false,1,8,09,CE,00,00,03,00,00,00
667080600,000006B3,false,1,8,0F,87,0F,84,0F,84,0F,87
667080300,00000373,false,0,8,BC,BB,7F,BC,0C,6A,80,16
667081100,00000288,false,0,8,27,10,4E,20,0C,01,01,10
667081400,00000564,false,0,8,02,8A,AA,02,A0,A0,A0,8A
667081100,000006B4,false,1,8,FF,FF,FF,FF,FF,FF,FF,FF
667081600,0000075A,false,0,8,03,E8,03,E8,64,64,37,38
667082200,00000362,false,0,8,01,00,10,04,00,00,00,00
667082400,00000287,false,0,8,27,10,27,10,27,10,00,02
667084700,00000389,false,0,8,00,00,00,39,39,00,00,00
667084900,00000285,false,0,8,00,00,03,0A,7D,00,08,10
667085300,00000375,false,0,8,08,08,00,1B,12,00,00,00
667086500,000003C2,false,1,8,7F,FF,FF,FC,C8,00,00,00
667087400,00000370,false,0,8,05,BE,00,00,00,40,00,00
667088200,00000289,false,0,8,27,10,4E,20,0C,02,11,10
667088400,0000028B,false,0,8,27,10,4E,20,0C,01,01,10
667088700,00000567,false,0,8,AA,00,00,00,00,A2,00,00
667088900,0000056B,false,0,8,AA,00,00,00,00,A2,00,00
667090300,00000373,false,0,8,BC,BB,7F,BC,0C,6A,80,16
667091100,00000288,false,0,8,27,10,4E,20,0C,01,01,10
667091300,00000565,false,0,8,AA,00,00,00,00,A2,00,00
667092200,00000362,false,0,8,01,00,10,04,00,00,00,00
667092400,00000287,false,0,8,27,10,27,10,27,10,00,02
667092800,000005A1,false,0,8,00,00,00,20,00,00,00,22
667094700,00000377,false,0,8,04,EC,00,05,3C,3F,39,20
667094900,00000285,false,0,8,00,00,03,0A,7D,00,08,10
667095300,0000066B,false,0,8,00,39,34,37,39,41,30,36
667095600,0000066C,false,0,8,01,AF,93,0A,D8,00,00,00
667096500,000003C2,false,1,8,80,00,00,01,C8,00,00,00
667098200,00000289,false,0,8,27,10,4E,20,0C,02,11,10
667098400,0000028B,false,0,8,27,10,4E,20,0C,01,01,10
667098600,0000056D,false,0,8,28,00,00,20,00,00,28,8A
667098900,0000056F,false,0,8,28,80,02,20,00,00,28,8A
667099100,00000732,false,0,8,03,E8,03,E8,64,64,02,81
667099300,00000734,false,0,8,03,E8,03,E8,64,64,37,37
667100300,00000373,false,0,8,BC,BB,7F,BC,0C,6A,80,16
667101000,00000288,false,0,8,27,10,4E,20,0C,01,01,10
667101300,0000056C,false,0,8,28,80,02,20,00,00,28,8A
667101500,0000075A,false,0,8,03,E8,03,E8,64,64,37,38
667102100,00000362,false,0,8,01,00,10,04,00,00,00,00
667102300,00000287,false,0,8,27,10,27,10,27,10,00,02
667104800,00000285,false,0,8,00,00,03,0A,7D,00,08,10
667106500,000003C2,false,1,8,80,00,00,03,C8,00,00,00
667107300,00000370,false,0,8,05,BE,00,00,00,40,00,00
667108200,00000289,false,0,8,27,10,4E,20,0C,02,11,10
667108400,0000028B,false,0,8,27,10,4E,20,0C,01,01,10
667109600,00000424,false,0,8,05,7D,00,10,00,10,00,00
667109800,00000371,false,0,8,2F,00,00,00,00,00,00,00
667110300,00000373,false,0,8,BC,BB,7F,BC,0C,6A,80,16
667110600,00000207,false,0,8,08,00,00,00,08,10,0C,00
667111100,00000288,false,0,8,27,10,4E,20,0C,01,01,10
667110700,00000671,false,1,8,00,30,42,42,42,42,42,FF
667110900,00000631,false,1,8,00,30,42,42,42,42,42,FF
667111100,00000672,false,1,8,0F,84,0F,82,0F,85,0F,85
667111400,00000621,false,1,8,00,30,42,43,42,42,42,FF
667111600,00000611,false,1,8,00,30,42,42,42,42,42,FF
667111900,00000622,false,1,8,0F,81,0F,87,0F,85,0F,87
667112100,00000612,false,1,8,0F,82,0F,87,0F,84,0F,82
667112300,00000623,false,1,8,0F,87,0F,88,0F,84,0F,81
667112600,00000613,false,1,8,0F,85,0F,87,0F,88,0F,82
667112200,00000362,false,0,8,01,00,10,04,00,00,00,00
667112400,00000287,false,0,8,27,10,27,10,27,10,00,02
667112800,00000624,false,1,8,FF,FF,FF,FF,FF,FF,FF,FF
667113100,00000614,false,1,8,FF,FF,FF,FF,FF,FF,FF,FF
667113300,00000632,false,1,8,0F,84,0F,82,0F,85,0F,85
667113500,00000641,false,1,8,00,30,42,42,42,42,42,FF
667113800,00000633,false,1,8,0F,84,0F,85,0F,85,0F,85
667114000,00000642,false,1,8,0F,88,0F,88,0F,8A,0F,87
667114300,00000634,false,1,8,FF,FF,FF,FF,FF,FF,FF,FF
667114500,00000643,false,1,8,0F,87,0F,88,0F,81,0F,85
667114700,00000651,false,1,8,00,30,42,42,42,42,42,FF
667115000,00000644,false,1,8,FF,FF,FF,FF,FF,FF,FF,FF
667115200,00000652,false,1,8,0F,85,0F,84,0F,87,0F,88
667114600,00000377,false,0,8,04,EC,00,0A,3C,3F,39,20
667114900,00000285,false,0,8,00,00,03,0A,7D,00,08,10
667115500,00000673,false,1,8,0F,7E,0F,82,0F,82,0F,7E
667115700,00000653,false,1,8,0F,84,0F,84,0F,84,0F,85
667116000,00000674,false,1,8,FF,FF,FF,FF,FF,FF,FF,FF
667116200,00000654,false,1,8,FF,FF,FF,FF,FF,FF,FF,FF
667116500,00000681,false,1,8,00,30,42,42,42,42,42,FF
667116700,000003C2,false,1,8,80,00,00,03,C8,00,00,00
667117000,00000682,false,1,8,0F,81,0F,81,0F,88,0F,84
667117200,00000691,false,1,8,00,30,42,42,42,42,42,FF
667117400,00000683,false,1,8,0F,87,0F,82,0F,85,0F,85
667117700,00000692,false,1,8,0F,84,0F,8A,0F,82,0F,84
667117300,00000286,false,0,8,00,00,00,37,00,00,0A,00
667118200,00000289,false,0,8,27,10,4E,20,0C,02,11,10
667118400,00000299,false,0,8,37,38,41,3C,38,00,00,00
667117900,000006A1,false,1,8,00,30,42,42,42,43,42,FF
667118200,00000684,false,1,8,FF,FF,FF,FF,FF,FF,FF,FF
667118400,00000693,false,1,8,0F,82,0F,85,0F,85,0F,88
667118600,000006A2,false,1,8,0F,82,0F,82,0F,7F,0F,7E
667118900,00000694,false,1,8,FF,FF,FF,FF,FF,FF,FF,FF
667119200,000006A3,false,1,8,0F,82,0F,84,0F,82,0F,7F
667119400,000006B1,false,1,8,00,30,42,42,42,42,42,FF
667119600,000006A4,false,1,8,FF,FF,FF,FF,FF,FF,FF,FF
667119900,000006B2,false,1,8,0F,85,0F,84,0F,84,0F,85
667118700,0000028B,false,0,8,27,10,4E,20,0C,01,01,10
667118900,00000732,false,0,8,03,E8,03,E8,64,64,02,81
667119100,0000029B,false,0,8,38,37,42,37,39,0A,00,38
667119500,00000734,false,0,8,03,E8,03,E8,64,64,37,37
667120300,00000373,false,0,8,BC,BB,7F,BC,0C,6A,80,16
667120300,000003C3,false,1,8,09,CE,00,00,03,00,00,00
667120600,000006B3,false,1,8,0F,87,0F,85,0F,84,0F,87
667121100,000006B4,false,1,8,FF,FF,FF,FF,FF,FF,FF,FF
667121000,00000288,false,0,8,27,10,4E,20,0C,01,01,10
667121300,00000298,false,0,8,38,38,42,37,39,00,00,38
667121600,0000075A,false,0,8,03,E8,03,E8,64,64,37,38
667122100,00000362,false,0,8,01,00,10,04,00,00,00,00
667122300,00000287,false,0,8,27,10,27,10,27,10,00,02
667124800,00000285,false,0,8,00,00,03,0A,7D,00,08,10
667126500,000003C2,false,1,8,80,00,00,00,C8,00,00,00
667127200,00000370,false,0,8,05,BE,00,00,00,40,00,00
667128200,00000289,false,0,8,27,10,4E,20,0C,02,11,10
667128400,0000028B,false,0,8,27,10,4E,20,0C,01,01,10
667128600,00000566,false,0,8,02,8A,0A,00,A0,A0,A0,8A
667128900,0000056A,false,0,8,02,8A,0A,00,A0,A0,A0,8A
667130300,00000373,false,0,8,BC,BB,7F,BC,0C,6A,80,16
667131000,00000288,false,0,8,27,10,4E,20,0C,01,01,10
667131300,00000564,false,0,8,02,8A,AA,0A,A0,A0,A0,8A
667132100,00000362,false,0,8,01,00,10,04,00,00,00,00
667132300,00000287,false,0,8,27,10,27,10,27,10,00,02
667134600,00000377,false,0,8,04,EC,00,0A,3C,3F,39,20
667134900,00000285,false,0,8,00,00,03,0A,7D,00,08,10
667136500,000003C2,false,1,8,7F,FF,FF,FE,C8,00,00,00
667138200,00000289,false,0,8,27,10,4E,20,0C,02,11,10
667138400,0000028B,false,0,8,27,10,4E,20,0C,01,01,10
667138600,00000567,false,0,8,AA,00,00,00,00,A2,00,00
667138900,0000056B,false,0,8,AA,00,00,00,00,A2,00,00
667139100,00000732,false,0,8,03,E8,03,E8,64,64,02,81
667139300,00000734,false,0,8,03,E8,03,E8,64,64,37,37
667140300,00000373,false,0,8,BC,BB,7F,BC,0C,6A,80,16
667141000,00000288,false,0,8,27,10,4E,20,0C,01,01,10
667141300,00000565,false,0,8,AA,00,00,00,00,A2,00,00
667141600,0000075A,false,0,8,03,E8,03,E8,64,64,37,38
667141900,00000362,false,0,8,03,03,10,03,00,00,00,00
667142200,00000287,false,0,8,27,10,27,10,27,10,00,02
667142400,000006FA,false,0,8,01,32,57,4B,5A,30,30,30
667142800,000005A1,false,0,8,00,00,00,20,00,00,00,22
667144700,00000285,false,0,8,00,00,03,0A,7D,00,08,10
667146400,000003C2,false,1,8,80,00,00,00,C8,00,00,00
667147200,00000370,false,0,8,05,BE,00,00,00,40,00,00
667147400,00000188,false,0,8,00,00,FF,FF,00,00,00,00
667148100,00000289,false,0,8,27,10,4E,20,0C,02,11,10
667148300,0000028B,false,0,8,27,10,4E,20,0C,01,01,10
667148600,0000056D,false,0,8,28,00,00,20,00,00,28,8A
667148800,0000056F,false,0,8,28,80,02,20,00,00,28,8A
667149400,00000424,false,0,8,05,7D,00,10,00,10,00,00
667150200,00000373,false,0,8,BC,BB,7F,BC,0C,6A,80,16
667150600,00000671,false,1,8,00,30,42,42,42,42,42,FF
667150900,00000631,false,1,8,00,30,42,42,42,42,42,FF
667151100,00000672,false,1,8,0F,84,0F,82,0F,85,0F,85
667151300,00000621,false,1,8,00,30,42,43,42,42,42,FF
667151600,00000611,false,1,8,00,30,42,42,42,42,42,FF
667151800,00000622,false,1,8,0F,81,0F,87,0F,85,0F,88
667151000,00000288,false,0,8,27,10,4E,20,0C,01,01,10
667151200,0000056C,false,0,8,28,80,02,20,00,00,28,8A
667151500,00000388,false,0,8,01,00,00,00,00,00,00,02
667152100,00000362,false,0,8,03,03,10,03,00,00,00,00
667152300,00000287,false,0,8,27,10,27,10,27,10,00,02
667152100,00000612,false,1,8,0F,82,0F,87,0F,84,0F,81
667152300,00000623,false,1,8,0F,87,0F,88,0F,84,0F,7F
667152500,00000613,false,1,8,0F,85,0F,85,0F,88,0F,82
667152800,00000624,false,1,8,FF,FF,FF,FF,FF,FF,FF,FF
667153000,00000614,false,1,8,FF,FF,FF,FF,FF,FF,FF,FF
667153300,00000632,false,1,8,0F,84,0F,82,0F,85,0F,85
667153500,00000641,false,1,8,00,30,42,42,42,42,42,FF
667153800,00000633,false,1,8,0F,84,0F,85,0F,85,0F,85
667154000,00000642,false,1,8,0F,88,0F,88,0F,88,0F,87
667154300,00000634,false,1,8,FF,FF,FF,FF,FF,FF,FF,FF
667154600,00000377,false,0,8,04,EC,00,0A,3C,3F,39,20
667154800,00000285,false,0,8,00,00,03,0A,7D,00,08,10
667154500,00000643,false,1,8,0F,87,0F,88,0F,81,0F,85
667154700,00000651,false,1,8,00,30,42,42,42,42,42,FF
667155000,00000644,false,1,8,FF,FF,FF,FF,FF,FF,FF,FF
667155200,00000652,false,1,8,0F,84,0F,84,0F,88,0F,88
667155500,00000673,false,1,8,0F,7E,0F,81,0F,82,0F,7E
667155700,00000653,false,1,8,0F,84,0F,85,0F,84,0F,85
667156000,00000674,false,1,8,FF,FF,FF,FF,FF,FF,FF,FF
667156200,00000654,false,1,8,FF,FF,FF,FF,FF,FF,FF,FF
667156400,00000681,false,1,8,00,30,42,42,42,42,42,FF
667156700,000003C2,false,1,8,80,00,00,03,C8,00,00,00
667156900,00000682,false,1,8,0F,82,0F,81,0F,88,0F,84
667157200,00000691,false,1,8,00,30,42,42,42,42,42,FF
667157400,00000683,false,1,8,0F,87,0F,82,0F,85,0F,84
667157600,00000692,false,1,8,0F,84,0F,8A,0F,82,0F,85
667157900,000006A1,false,1,8,00,30,42,42,42,43,42,FF
667158100,00000684,false,1,8,FF,FF,FF,FF,FF,FF,FF,FF
667158400,00000693,false,1,8,0F,82,0F,85,0F,85,0F,87
667158600,000006A2,false,1,8,0F,82,0F,82,0F,7F,0F,7F
667158100,00000289,false,0,8,27,10,4E,20,0C,02,11,10
667158300,0000028B,false,0,8,27,10,4E,20,0C,01,01,10
667158600,00000732,false,0,8,03,E8,03,E8,64,64,02,81
667158800,00000154,false,0,8,61,61,60,61,0A,07,6C,78
667159000,00000733,false,0,8,37,37,37,38,10,B0,A1,38
667159200,00000734,false,0,8,03,E8,03,E8,64,64,37,37
667158900,00000694,false,1,8,FF,FF,FF,FF,FF,FF,FF,FF
667159100,000006A3,false,1,8,0F,82,0F,84,0F,82,0F,7F
667159300,000006B1,false,1,8,00,30,42,42,42,42,42,FF
667159600,000006A4,false,1,8,FF,FF,FF,FF,FF,FF,FF,FF
667159800,000006B2,false,1,8,0F,85,0F,84,0F,84,0F,85
667160300,000003C3,false,1,8,09,CE,00,00,03,00,00,00
667160500,000006B3,false,1,8,0F,87,0F,84,0F,84,0F,87
667159500,00000735,false,0,8,38,00,38,00,10,B0,A1,37
667160200,00000373,false,0,8,BC,BB,7F,BC,0C,6A,80,16
667161000,00000288,false,0,8,27,10,4E,20,0C,01,01,10
667161200,0000075A,false,0,8,03,E8,03,E8,64,64,37,38
667161500,0000075B,false,0,8,38,00,38,00,10,B2,A1,38
667161100,000006B4,false,1,8,FF,FF,FF,FF,FF,FF,FF,FF
667162100,00000362,false,0,8,03,03,10,03,00,00,00,00
667162300,00000287,false,0,8,27,10,27,10,27,10,00,02
667164600,0000038A,false,0,8,3E,39,00,00,04,00,00,00
667164800,00000285,false,0,8,00,00,03,0A,7D,00,08,10
667166400,000003C2,false,1,8,7F,FF,FF,FF,C8,00,00,00
667167100,00000370,false,0,8,05,BE,00,00,00,40,00,00
667168100,00000289,false,0,8,27,10,4E,20,0C,02,11,10
667168300,0000028B,false,0,8,27,10,4E,20,0C,01,01,10
667168500,0000029A,false,0,8,00,4A,4D,46,58,44,47,47
667170200,00000373,false,0,8,BC,BB,7F,BC,0C,6A,80,16
667171000,00000288,false,0,8,27,10,4E,20,0C,01,01,10
667172100,00000362,false,0,8,03,03,10,03,00,00,00,00
667172300,00000287,false,0,8,27,10,27,10,27,10,00,02
667174600,00000377,false,0,8,04,EC,00,0A,3C,3F,39,20
667174800,00000285,false,0,8,00,00,03,0A,7D,00,08,10
667175200,00000374,false,0,8,8B,8B,3B,EB,43,42,3F,30
667176300,000003C2,false,1,8,80,00,00,01,C8,00,00,00
667177200,00000185,false,0,8,00,00,0B,00,00,00,00,00
667178100,00000289,false,0,8,27,10,4E,20,0C,02,11,10
667178300,0000028B,false,0,8,27,10,4E,20,0C,01,01,10
667178500,00000566,false,0,8,02,8A,0A,00,A0,A0,A0,8A
667178800,0000056A,false,0,8,02,8A,0A,00,A0,A0,A0,8A
667179000,00000732,false,0,8,03,E8,03,E8,64,64,02,81
667179200,00000734,false,0,8,03,E8,03,E8,64,64,37,37
667180200,00000373,false,0,8,BC,BB,7F,BC,0C,6A,80,16
667181000,00000288,false,0,8,27,10,4E,20,0C,01,01,10
667181200,00000564,false,0,8,02,8A,AA,0A,A0,A0,A0,8A
667181500,0000075A,false,0,8,03,E8,03,E8,64,64,37,38
667181900,00000362,false,0,8,03,03,10,03,00,00,00,00
667182200,00000287,false,0,8,27,10,27,10,27,10,00,02
667184600,00000389,false,0,8,00,00,00,39,39,00,00,00
667184800,00000285,false,0,8,00,00,03,0A,7D,00,08,10
667185200,00000375,false,0,8,08,08,00,1B,12,00,00,00
667186400,000003C2,false,1,8,7F,FF,FF,FD,C8,00,00,00
667187100,00000370,false,0,8,05,BE,00,00,00,40,00,00
667188100,00000289,false,0,8,27,10,4E,20,0C,02,11,10
667188300,0000028B,false,0,8,27,10,4E,20,0C,01,01,10
667188600,00000567,false,0,8,AA,00,00,00,00,A2,00,00
667188800,0000056B,false,0,8,AA,00,00,00,00,A2,00,00
667189400,00000424,false,0,8,05,7E,00,10,00,10,00,00
667190200,00000373,false,0,8,BC,BB,7F,BC,0C,6A,80,16
667190600,00000671,false,1,8,00,30,42,42,42,42,42,FF
667190800,000006B1,false,1,8,00,30,42,42,42,42,42,FF
667191100,00000631,false,1,8,00,30,42,42,42,42,42,FF
667190900,00000288,false,0,8,27,10,4E,20,0C,01,01,10
667191200,00000565,false,0,8,AA,00,00,00,00,A2,00,00
667191300,00000621,false,1,8,00,30,42,43,42,42,42,FF
667191500,00000611,false,1,8,00,30,42,42,42,42,42,FF
667191800,00000622,false,1,8,0F,81,0F,87,0F,85,0F,87
667192000,00000612,false,1,8,0F,82,0F,87,0F,84,0F,81
667192300,00000623,false,1,8,0F,87,0F,88,0F,84,0F,81
667192500,00000613,false,1,8,0F,85,0F,85,0F,8A,0F,81
667192000,00000362,false,0,8,03,03,10,03,00,00,00,00
667192200,00000287,false,0,8,27,10,27,10,27,10,00,02
667192700,000005A1,false,0,8,00,00,00,20,00,00,00,22
667192800,00000624,false,1,8,FF,FF,FF,FF,FF,FF,FF,FF
667193000,00000614,false,1,8,FF,FF,FF,FF,FF,FF,FF,FF
667193200,00000632,false,1,8,0F,84,0F,82,0F,84,0F,85
667193500,00000641,false,1,8,00,30,42,42,42,42,42,FF
667193700,00000633,false,1,8,0F,84,0F,85,0F,85,0F,85
667194000,00000642,false,1,8,0F,88,0F,88,0F,8A,0F,87
667194200,00000634,false,1,8,FF,FF,FF,FF,FF,FF,FF,FF
667194500,00000377,false,0,8,04,EE,00,0A,3C,3F,39,20
667194800,00000285,false,0,8,00,00,03,0A,7D,00,08,10
667194400,00000643,false,1,8,0F,87,0F,87,0F,81,0F,85
667194700,00000651,false,1,8,00,30,42,42,42,42,42,FF
667194900,00000644,false,1,8,FF,FF,FF,FF,FF,FF,FF,FF
667195200,00000652,false,1,8,0F,85,0F,82,0F,87,0F,88
667195400,00000672,false,1,8,0F,84,0F,82,0F,85,0F,85
667195700,00000653,false,1,8,0F,84,0F,85,0F,84,0F,84
667195900,00000673,false,1,8,0F,7E,0F,82,0F,81,0F,7E
667196200,00000654,false,1,8,FF,FF,FF,FF,FF,FF,FF,FF
667196400,000003C2,false,1,8,80,00,00,03,C8,00,00,00
667196700,00000674,false,1,8,FF,FF,FF,FF,FF,FF,FF,FF
667196900,00000681,false,1,8,00,30,42,42,42,42,42,FF
667197100,00000691,false,1,8,00,30,42,42,42,42,42,FF
667197300,000006A1,false,1,8,00,30,42,42,42,43,42,FF
667197600,00000682,false,1,8,0F,81,0F,81,0F,88,0F,84
667197800,00000692,false,1,8,0F,84,0F,8A,0F,82,0F,85
667198100,00000683,false,1,8,0F,87,0F,82,0F,85,0F,85
667198300,00000693,false,1,8,0F,82,0F,85,0F,85,0F,88
667198600,00000684,false,1,8,FF,FF,FF,FF,FF,FF,FF,FF
667198800,00000694,false,1,8,FF,FF,FF,FF,FF,FF,FF,FF
667199100,000006A2,false,1,8,0F,82,0F,82,0F,7F,0F,7F
667198100,00000289,false,0,8,27,10,4E,20,0C,02,11,10
667198300,0000028B,false,0,8,27,10,4E,20,0C,01,01,10
667198500,0000056D,false,0,8,28,00,00,20,00,00,28,8A
667198800,0000056F,false,0,8,28,80,02,20,00,00,28,8A
667199000,00000732,false,0,8,03,E8,03,E8,64,64,02,81
667199200,00000734,false,0,8,03,E8,03,E8,64,64,37,37
667199300,000006B2,false,1,8,0F,85,0F,84,0F,84,0F,85
667199500,000006A3,false,1,8,0F,82,0F,84,0F,81,0F,7F
667199800,000006B3,false,1,8,0F,87,0F,85,0F,84,0F,87
667200000,000006A4,false,1,8,FF,FF,FF,FF,FF,FF,FF,FF
667200300,000003C3,false,1,8,09,CE,00,00,03,00,00,00
667200500,000006B4,false,1,8,FF,FF,FF,FF,FF,FF,FF,FF
667200200,00000373,false,0,8,BC,BB,7F,BC,0C,6A,80,16
667200900,00000288,false,0,8,27,10,4E,20,0C,01,01,10
667201200,0000056C,false,0,8,28,80,02,20,00,00,28,8A
667201400,0000075A,false,0,8,03,E8,03,E8,64,64,37,38
667202000,00000362,false,0,8,03,03,10,03,00,00,00,00
667202200,00000287,false,0,8,27,10,27,10,27,10,00,02
667204500,00000569,false,0,8,AA,80,00,00,00,00,00,00
667204800,00000285,false,0,8,00,00,03,0A,7D,00,08,10
667205000,00000664,false,0,8,01,83,06,32,F3,00,00,00
667206300,000003C2,false,1,8,7F,FF,FF,FF,C8,00,00,00
667207000,00000370,false,0,8,05,BE,00,00,00,40,00,00
667208000,00000289,false,0,8,27,10,4E,20,0C,02,11,10
667208200,0000028B,false,0,8,27,10,4E,20,0C,01,01,10
667209500,00000371,false,0,8,35,00,00,00,00,00,00,00
667210200,00000373,false,0,8,BC,BB,7F,BC,0C,6A,80,16
667210900,00000288,false,0,8,27,10,4E,20,0C,01,01,10
667211200,00000207,false,0,8,08,00,00,00,08,10,00,00
667212000,00000362,false,0,8,03,03,10,03,00,00,00,00
667212200,00000287,false,0,8,27,10,27,10,27,10,00,02
667214500,00000285,false,0,8,00,00,03,0A,7D,00,08,10
667214700,00000377,false,0,8,04,F2,00,05,3C,3F,39,20
667216300,000003C2,false,1,8,80,00,00,00,C8,00,00,00
667217000,00000286,false,0,8,00,00,00,37,00,00,0A,00
667218100,00000289,false,0,8,27,10,4E,20,0C,02,11,10
667218300,0000028B,false,0,8,27,10,4E,20,0C,01,01,10
667218500,00000299,false,0,8,37,38,41,3C,38,00,00,00
667218800,0000029B,false,0,8,38,37,42,37,39,0A,0D,38
667219000,00000732,false,0,8,03,E8,03,E8,64,64,02,81
667219200,00000734,false,0,8,03,E8,03,E8,64,64,37,37
667220200,00000373,false,0,8,BC,BB,7F,BC,0C,6A,80,16
667220900,00000288,false,0,8,27,10,4E,20,0C,01,01,10
667221100,00000298,false,0,8,38,38,42,37,39,00,00,38
667221400,0000075A,false,0,8,03,E8,03,E8,64,64,37,38
667221800,00000362,false,0,8,03,03,10,03,00,00,00,00
667222000,00000287,false,0,8,27,10,27,10,27,10,00,02
667224500,00000285,false,0,8,00,00,03,0A,7D,00,08,10
667224700,00000568,false,0,8,00,02,80,00,00,00,08,80
667225000,00000663,false,0,8,01,31,30,30,00,00,00,00
667226200,000003C2,false,1,8,7F,FF,FF,FF,C8,00,00,00
667227000,00000370,false,0,8,05,BE,00,00,00,40,00,00
667228000,00000289,false,0,8,27,10,4E,20,0C,02,11,10
667228200,0000028B,false,0,8,27,10,4E,20,0C,01,01,10
667228500,00000566,false,0,8,02,8A,0A,00,A0,A0,A0,8A
667228700,0000056A,false,0,8,02,8A,0A,00,A0,A0,A0,8A
667229400,00000424,false,0,8,05,7E,00,10,00,10,00,00
667230100,00000373,false,0,8,BC,BB,7F,BC,0C,6A,80,16
667230600,00000671,false,1,8,00,30,42,42,42,42,42,FF
667230800,000006B1,false,1,8,00,30,42,42,42,42,42,FF
667231000,00000631,false,1,8,00,30,42,42,42,42,42,FF
667230900,00000288,false,0,8,27,10,4E,20,0C,01,01,10
667231100,00000564,false,0,8,02,8A,AA,0A,A0,A0,A0,8A
667231900,00000362,false,0,8,03,03,10,03,00,00,00,00
667231300,00000621,false,1,8,00,30,42,43,42,42,42,FF
667231500,00000611,false,1,8,00,30,42,42,42,42,42,FF
667231700,00000622,false,1,8,0F,81,0F,87,0F,85,0F,87
667232000,00000612,false,1,8,0F,82,0F,87,0F,84,0F,81
667232200,00000623,false,1,8,0F,87,0F,88,0F,85,0F,81
667232500,00000613,false,1,8,0F,85,0F,85,0F,88,0F,81
667232700,00000624,false,1,8,FF,FF,FF,FF,FF,FF,FF,FF
667232100,00000287,false,0,8,27,10,27,10,27,10,00,02
667233000,00000614,false,1,8,FF,FF,FF,FF,FF,FF,FF,FF
667233200,00000632,false,1,8,0F,84,0F,82,0F,84,0F,85
667233500,00000641,false,1,8,00,30,42,42,42,42,42,FF
667233700,00000633,false,1,8,0F,84,0F,87,0F,85,0F,85
667233900,00000642,false,1,8,0F,88,0F,88,0F,8A,0F,87
667234200,00000634,false,1,8,FF,FF,FF,FF,FF,FF,FF,FF
667234400,00000643,false,1,8,0F,87,0F,87,0F,81,0F,85
667234500,00000285,false,0,8,00,00,03,0A,7D,00,08,10
667234700,00000377,false,0,8,04,F4,00,05,3C,3F,39,20
667234700,00000651,false,1,8,00,30,42,42,42,42,42,FF
667234900,00000644,false,1,8,FF,FF,FF,FF,FF,FF,FF,FF
667235100,00000652,false,1,8,0F,85,0F,84,0F,87,0F,88
667235400,00000672,false,1,8,0F,84,0F,82,0F,85,0F,85
667235700,00000653,false,1,8,0F,84,0F,85,0F,84,0F,85
667235900,00000673,false,1,8,0F,7E,0F,81,0F,81,0F,7C
667236100,00000654,false,1,8,FF,FF,FF,FF,FF,FF,FF,FF
667236400,000003C2,false,1,8,80,00,00,00,C8,00,00,00
667236600,00000674,false,1,8,FF,FF,FF,FF,FF,FF,FF,FF
667236900,00000681,false,1,8,00,30,42,42,42,42,42,FF
667237100,00000691,false,1,8,00,30,42,42,42,42,42,FF
667237300,000006A1,false,1,8,00,30,42,42,42,42,42,FF
667237600,00000682,false,1,8,0F,81,0F,82,0F,88,0F,84
667237800,00000692,false,1,8,0F,84,0F,8A,0F,82,0F,84
667238100,00000683,false,1,8,0F,87,0F,82,0F,85,0F,84
667238000,00000289,false,0,8,27,10,4E,20,0C,02,11,10
667238200,0000028B,false,0,8,27,10,4E,20,0C,01,01,10
667238500,00000567,false,0,8,AA,00,00,00,00,A2,00,00
667238700,0000056B,false,0,8,AA,00,00,00,00,A2,00,00
667238900,00000732,false,0,8,03,E8,03,E8,64,64,02,81
667239200,00000734,false,0,8,03,E8,03,E8,64,64,37,37
667238300,00000693,false,1,8,0F,82,0F,85,0F,85,0F,88
667238500,00000684,false,1,8,FF,FF,FF,FF,FF,FF,FF,FF
667238800,00000694,false,1,8,FF,FF,FF,FF,FF,FF,FF,FF
667239000,000006A2,false,1,8,0F,82,0F,82,0F,7F,0F,7F
667239300,000006B2,false,1,8,0F,85,0F,84,0F,84,0F,87
667239500,000006A3,false,1,8,0F,81,0F,84,0F,81,0F,7F
667239800,000006B3,false,1,8,0F,87,0F,85,0F,84,0F,87
667240100,00000373,false,0,8,BC,BB,7F,BC,0C,6A,80,16
667240000,000006A4,false,1,8,FF,FF,FF,FF,FF,FF,FF,FF
667240300,000003C3,false,1,8,09,CE,00,00,03,00,00,00
667240500,000006B4,false,1,8,FF,FF,FF,FF,FF,FF,FF,FF
667240900,00000288,false,0,8,27,10,4E,20,0C,01,01,10
667241100,00000565,false,0,8,AA,00,00,00,00,A2,00,00
667241400,0000075A,false,0,8,03,E8,03,E8,64,64,37,38
667241900,00000287,false,0,8,27,10,27,10,27,10,00,02
667242200,00000362,false,0,8,03,03,10,03,00,00,00,00
667242600,000006FA,false,0,8,02,38,36,37,00,00,00,00
667242800,000005A1,false,0,8,00,00,00,20,00,00,00,22
667244400,00000285,false,0,8,00,00,03,0A,7D,00,08,10
667244700,00000563,false,0,8,00,20,00,A2,02,00,00,00
667246200,000003C2,false,1,8,80,00,00,00,C8,00,00,00
667246900,00000370,false,0,8,05,BE,00,00,00,40,00,00
667247100,00000188,false,0,8,00,00,FF,FF,00,00,00,00
667248000,00000289,false,0,8,27,10,4E,20,0C,02,11,10
667248300,0000028B,false,0,8,27,10,4E,20,0C,01,01,10
667248500,0000056D,false,0,8,28,00,00,20,00,00,28,8A
667248700,0000056F,false,0,8,28,80,02,20,00,00,28,8A
667250100,00000373,false,0,8,BC,BA,7F,BC,0C,6A,80,16
667250900,00000288,false,0,8,27,10,4E,20,0C,01,01,10
667251100,0000056C,false,0,8,28,80,02,20,00,00,28,8A
667251400,00000388,false,0,8,01,00,00,00,00,00,00,02
667251900,00000362,false,0,8,03,03,10,03,00,00,00,00
667252100,00000287,false,0,8,27,10,27,10,27,10,00,02
667254400,00000285,false,0,8,00,00,03,0A,7D,00,08,10
667254600,00000377,false,0,8,04,F6,00,05,3C,3F,39,20
667256200,000003C2,false,1,8,7F,FF,FF,FF,C8,00,00,00
667258000,00000289,false,0,8,27,10,4E,20,0C,02,11,10
667258200,0000028B,false,0,8,27,10,4E,20,0C,01,01,10
667258400,00000732,false,0,8,03,E8,03,E8,64,64,02,81
667258700,00000154,false,0,8,61,61,60,61,0A,07,6C,78
667258900,00000733,false,0,8,37,37,37,38,10,B0,A1,38
667259100,00000734,false,0,8,03,E8,03,E8,64,64,37,37
667259400,00000735,false,0,8,38,00,38,00,10,B0,A1,37
667260100,00000373,false,0,8,BC,BA,7F,BC,0C,6A,80,16
667261000,00000288,false,0,8,27,10,4E,20,0C,01,01,10
667261200,0000075A,false,0,8,03,E8,03,E8,64,64,37,38
667261500,0000075B,false,0,8,38,00,38,00,10,B2,A1,38
667261800,00000362,false,0,8,03,03,10,03,00,00,00,00
667262000,00000287,false,0,8,27,10,27,10,27,10,00,02
667264400,00000285,false,0,8,00,00,03,0A,7D,00,08,10
667264600,0000038A,false,0,8,3E,39,00,00,04,00,00,00
667266200,000003C2,false,1,8,80,00,00,00,C8,00,00,00
667266800,00000370,false,0,8,05,BE,00,00,00,40,00,00
667267900,00000289,false,0,8,27,10,4E,20,0C,02,11,10
667268200,0000028B,false,0,8,27,10,4E,20,0C,01,01,10
667268400,0000029A,false,0,8,01,32,57,4B,5A,30,30,30
667269500,00000424,false,0,8,05,7E,00,10,00,10,00,00
667270100,00000373,false,0,8,BC,BA,7F,BC,0C,6A,80,16
667270800,00000288,false,0,8,27,10,4E,20,0C,01,01,10
667270500,00000671,false,1,8,00,30,42,42,42,42,42,FF
667270800,000006B1,false,1,8,00,30,42,42,42,42,42,FF
667271000,00000631,false,1,8,00,30,42,42,42,42,42,FF
667271200,00000621,false,1,8,00,30,42,43,42,42,42,FF
667271500,00000611,false,1,8,00,30,42,42,42,42,42,FF
667271700,00000622,false,1,8,0F,81,0F,87,0F,85,0F,87
667272000,00000612,false,1,8,0F,82,0F,87,0F,84,0F,82
667272200,00000623,false,1,8,0F,87,0F,88,0F,84,0F,81
667272400,00000613,false,1,8,0F,85,0F,87,0F,88,0F,81
667271800,00000362,false,0,8,03,03,10,03,00,00,00,00
667272100,00000287,false,0,8,27,10,27,10,27,10,00,02
667272700,00000624,false,1,8,FF,FF,FF,FF,FF,FF,FF,FF
667272900,00000614,false,1,8,FF,FF,FF,FF,FF,FF,FF,FF
667273200,00000632,false,1,8,0F,84,0F,82,0F,85,0F,85
667273400,00000641,false,1,8,00,30,42,42,42,42,42,FF
667273700,00000633,false,1,8,0F,84,0F,85,0F,85,0F,85
667273900,00000642,false,1,8,0F,88,0F,88,0F,8A,0F,87
667274100,00000634,false,1,8,FF,FF,FF,FF,FF,FF,FF,FF
667274300,00000285,false,0,8,00,00,03,0A,7D,00,08,10
667274600,00000377,false,0,8,04,F6,00,0A,3C,3F,39,20
667275100,00000374,false,0,8,8B,8B,3B,EC,43,42,3F,30
667274400,00000643,false,1,8,0F,87,0F,88,0F,81,0F,85
667274600,00000651,false,1,8,00,30,42,42,42,42,42,FF
667274900,00000644,false,1,8,FF,FF,FF,FF,FF,FF,FF,FF
667275100,00000652,false,1,8,0F,85,0F,84,0F,87,0F,88
667275400,00000672,false,1,8,0F,82,0F,82,0F,84,0F,84
667275600,00000653,false,1,8,0F,84,0F,85,0F,84,0F,85
667275800,00000673,false,1,8,0F,7E,0F,82,0F,81,0F,7E
667276100,00000654,false,1,8,FF,FF,FF,FF,FF,FF,FF,FF
667276300,000003C2,false,1,8,80,00,00,05,C8,00,00,00
667276600,00000674,false,1,8,FF,FF,FF,FF,FF,FF,FF,FF
667276800,00000681,false,1,8,00,30,42,42,42,42,42,FF
667277100,00000691,false,1,8,00,30,42,42,42,42,42,FF
667277300,000006A1,false,1,8,00,30,42,42,42,43,42,FF
667277500,00000682,false,1,8,0F,82,0F,82,0F,88,0F,84
667277800,00000692,false,1,8,0F,84,0F,8A,0F,82,0F,84
667277000,00000185,false,0,8,00,00,0B,00,00,00,00,00
667278000,00000289,false,0,8,27,10,4E,20,0C,02,11,10
667278200,0000028B,false,0,8,27,10,4E,20,0C,01,01,10
667278400,00000566,false,0,8,02,8A,0A,00,A0,A0,A0,8A
667278700,0000056A,false,0,8,02,8A,0A,00,A0,A0,A0,8A
667278900,00000732,false,0,8,03,E8,03,E8,64,64,02,81
667278000,00000683,false,1,8,0F,87,0F,82,0F,85,0F,84
667278300,00000693,false,1,8,0F,82,0F,85,0F,85,0F,88
667278500,00000684,false,1,8,FF,FF,FF,FF,FF,FF,FF,FF
667278800,00000694,false,1,8,FF,FF,FF,FF,FF,FF,FF,FF
667279000,000006A2,false,1,8,0F,82,0F,82,0F,7F,0F,7F
667279200,000006B2,false,1,8,0F,85,0F,84,0F,84,0F,85
667279500,000006A3,false,1,8,0F,82,0F,84,0F,81,0F,7F
667279100,00000734,false,0,8,03,E8,03,E8,64,64,37,37
667280100,00000373,false,0,8,BC,BA,7F,BC,0C,6A,80,16
667279700,000006B3,false,1,8,0F,87,0F,85,0F,84,0F,87
667280000,000006A4,false,1,8,FF,FF,FF,FF,FF,FF,FF,FF
667280200,000003C3,false,1,8,09,CE,00,00,03,00,00,00
667280500,000006B4,false,1,8,FF,FF,FF,FF,FF,FF,FF,FF
667280800,00000288,false,0,8,27,10,4E,20,0C,01,01,10
667281100,00000564,false,0,8,02,8A,AA,0A,A0,A0,A0,8A
667281300,0000075A,false,0,8,03,E8,03,E8,64,64,37,38
667281800,00000287,false,0,8,27,10,27,10,27,10,00,02
667282100,00000362,false,0,8,03,03,10,03,00,00,00,00
667284300,00000285,false,0,8,00,00,03,0A,7D,00,08,10
667284600,00000389,false,0,8,00,00,00,39,39,00,00,00
667285100,00000375,false,0,8,08,08,00,1B,12,00,00,00
667286100,000003C2,false,1,8,80,00,00,00,C8,00,00,00
667286800,00000370,false,0,8,05,BE,00,00,00,40,00,00
667287900,00000289,false,0,8,27,10,4E,20,0C,02,11,10
667288200,0000028B,false,0,8,27,10,4E,20,0C,01,01,10
667288400,00000567,false,0,8,AA,00,00,00,00,A2,00,00
667288700,0000056B,false,0,8,AA,00,00,00,00,A2,00,00
667290100,00000373,false,0,8,BC,BB,7F,BC,0C,6A,80,16
667290800,00000288,false,0,8,27,10,4E,20,0C,01,01,10
667291100,00000565,false,0,8,AA,00,00,00,00,A2,00,00
667291800,00000287,false,0,8,27,10,27,10,27,10,00,02
667292000,00000362,false,0,8,03,03,10,03,00,00,00,00
667292600,000005A1,false,0,8,00,00,00,20,00,00,00,22
667294300,00000285,false,0,8,00,00,03,0A,7D,00,08,10
667294500,00000377,false,0,8,04,F6,00,0A,3C,3F,39,20
667296200,000003C2,false,1,8,80,00,00,04,C8,00,00,00
667297900,00000289,false,0,8,27,10,4E,20,0C,02,11,10
667298100,0000028B,false,0,8,27,10,4E,20,0C,01,01,10
667298400,0000056D,false,0,8,28,00,00,20,00,00,28,8A
667298600,0000056F,false,0,8,28,80,02,20,00,00,28,8A
667298900,00000732,false,0,8,03,E8,03,E8,64,64,02,81
667299100,00000734,false,0,8,03,E8,03,E8,64,64,37,37
667300100,00000373,false,0,8,BC,BB,7F,BC,0C,6A,80,16
667300800,00000288,false,0,8,27,10,4E,20,0C,01,01,10
667301100,0000056C,false,0,8,28,80,02,20,00,00,28,8A
667301400,0000075A,false,0,8,03,E8,03,E8,64,64,37,38
667301600,00000362,false,0,8,03,03,10,03,00,00,00,00
667301900,00000287,false,0,8,27,10,27,10,27,10,00,02
667304300,00000285,false,0,8,00,00,03,0A,7D,00,08,10
667306100,000003C2,false,1,8,80,00,00,01,C8,00,00,00
667306700,00000370,false,0,8,05,BE,00,00,00,40,00,00
667307900,00000289,false,0,8,27,10,4E,20,0C,02,11,10
667308200,0000028B,false,0,8,27,10,4E,20,0C,01,01,10
667309200,00000424,false,0,8,05,7E,00,10,00,10,00,00
667309500,00000371,false,0,8,39,00,00,00,00,00,00,00
667310000,00000373,false,0,8,BC,BB,7F,BC,0C,6A,80,16
667310500,00000671,false,1,8,00,30,42,42,42,42,42,FF
667310800,000006B1,false,1,8,00,30,42,42,42,42,42,FF
667311000,00000631,false,1,8,00,30,42,42,42,42,42,FF
667310700,00000207,false,0,8,08,00,00,00,08,10,00,00
667310900,00000288,false,0,8,27,10,4E,20,0C,01,01,10
667311700,00000287,false,0,8,27,10,27,10,27,10,00,02
667312000,00000362,false,0,8,03,03,10,03,00,00,00,00
667311200,00000621,false,1,8,00,30,42,43,42,42,42,FF
667311400,00000611,false,1,8,00,30,42,42,42,42,42,FF
667311700,00000622,false,1,8,0F,81,0F,87,0F,85,0F,87
667311900,00000612,false,1,8,0F,82,0F,87,0F,84,0F,81
667312200,00000623,false,1,8,0F,87,0F,88,0F,84,0F,81
667312400,00000613,false,1,8,0F,85,0F,87,0F,8A,0F,81
667312700,00000624,false,1,8,FF,FF,FF,FF,FF,FF,FF,FF
667312900,00000614,false,1,8,FF,FF,FF,FF,FF,FF,FF,FF
667313200,00000632,false,1,8,0F,84,0F,82,0F,85,0F,85
667313400,00000641,false,1,8,00,30,42,42,42,42,42,FF
667313600,00000633,false,1,8,0F,84,0F,85,0F,85,0F,85
667313900,00000642,false,1,8,0F,88,0F,88,0F,8A,0F,87
667314100,00000634,false,1,8,FF,FF,FF,FF,FF,FF,FF,FF
667314200,00000285,false,0,8,00,00,03,0A,7D,00,08,10
667314500,00000377,false,0,8,04,F4,00,0A,3C,3F,39,20
667314400,00000643,false,1,8,0F,87,0F,87,0F,81,0F,85
667314600,00000651,false,1,8,00,30,42,42,42,42,42,FF
667314800,00000644,false,1,8,FF,FF,FF,FF,FF,FF,FF,FF
667315100,00000652,false,1,8,0F,85,0F,84,0F,87,0F,88
667315300,00000672,false,1,8,0F,84,0F,82,0F,85,0F,85
667315600,00000653,false,1,8,0F,84,0F,85,0F,84,0F,85
667315800,00000673,false,1,8,0F,7E,0F,81,0F,82,0F,7E
667316100,00000654,false,1,8,FF,FF,FF,FF,FF,FF,FF,FF
667316300,000003C2,false,1,8,80,00,00,01,C8,00,00,00
667316600,00000674,false,1,8,FF,FF,FF,FF,FF,FF,FF,FF
667316700,00000286,false,0,8,00,00,00,37,00,00,0A,00
667317900,00000289,false,0,8,27,10,4E,20,0C,02,11,10
667318200,0000028B,false,0,8,27,10,4E,20,0C,01,01,10
667316800,00000681,false,1,8,00,30,42,42,42,42,42,FF
667317000,00000691,false,1,8,00,30,42,42,42,42,42,FF
667317300,000006A1,false,1,8,00,30,42,42,42,42,42,FF
667317500,00000682,false,1,8,0F,82,0F,81,0F,88,0F,84
