Time Stamp,ID,Extended,Bus,LEN,D1,D2,D3,D4,D5,D6,D7,D8
239164800,00000151,false,0,8,82,FF,FF,FF,FE,02,00,00
239165800,00000347,false,0,8,01,00,00,16,12,00,FF,FF
239166300,00000315,false,0,8,55,02,00,00,00,00,71,01
239171400,00000425,false,0,8,00,21,0A,10,00,00,00,00
239176100,00000424,false,0,8,05,7D,00,1F,00,03,00,00
239178200,00000188,false,0,8,00,00,00,FF,00,00,00,00
239181500,0000039A,false,0,8,67,F8,00,00,00,00,00,00
239183500,00000347,false,0,8,01,00,00,16,12,00,02,3A
239186100,00000315,false,0,8,59,02,00,00,00,00,71,01
239186400,000006FF,false,0,8,4D,01,0A,96,60,00,00,00
239191500,000006FD,false,0,8,01,8B,22,41,10,04,C8,18
239196200,000006FB,false,0,8,01,80,1C,04,83,0A,00,40
239201500,000005FE,false,0,8,41,28,D5,15,20,18,08,6B
239206200,00000315,false,0,8,1D,02,00,00,00,00,71,01
239206400,000006F1,false,0,8,F5,0C,02,0B,5C,04,10,53
239208100,00000185,false,0,8,00,00,FF,00,00,00,00,00
239211300,000006F3,false,0,8,99,01,68,0A,02,11,06,33
239211600,00000425,false,0,8,00,21,0A,10,00,00,00,00
239214000,00000236,false,0,8,10,13,3F,FF,00,00,00,98
239216100,00000325,false,0,6,01,00,00,00,00,00
239216300,00000424,false,0,8,05,7D,00,1E,00,03,00,00
239224000,00000236,false,0,8,10,13,3F,FF,10,00,00,80
239225900,000006F4,false,0,8,69,29,20,01,1D,00,00,00
239226200,00000315,false,0,8,21,02,00,00,00,00,71,01
239231600,0000039A,false,0,8,67,F8,00,00,00,00,00,00
239233400,00000347,false,0,8,01,00,00,16,12,00,02,3A
239234000,00000236,false,0,8,10,13,3F,FF,20,00,00,A8
239236600,00000143,false,0,8,7D,00,00,00,00,7D,1F,FF
239236900,00000418,false,0,8,FF,FF,FF,00,00,00,38,00
239236700,00000287,false,1,8,27,10,27,10,27,10,00,00
239238400,00000185,false,1,8,08,00,04,00,00,00,00,00
239239200,00000285,false,1,8,00,00,02,00,00,00,00,00
239238200,00000185,false,0,8,08,00,04,00,00,00,00,00
239239100,00000145,false,0,8,4E,20,9F,FF,DF,FF,1F,FF
239239400,00000346,false,0,8,FF,FF,FF,00,00,00,00,7F
239241800,00000370,false,1,8,05,BE,00,00,00,00,00,00
239241700,00000359,false,0,8,30,03,7F,80,C0,00,2E,00
239242000,0000035A,false,0,8,00,80,80,80,80,00,00,00
239242200,00000390,false,0,8,08,00,FF,FF,FE,00,00,00
239243900,00000236,false,0,8,10,13,3F,FF,30,00,00,B0
239244200,00000207,false,0,8,08,00,00,00,08,10,00,00
239244400,00000215,false,0,8,FF,FF,FF,FF,FF,FF,00,00
239244300,00000371,false,1,8,00,00,00,00,00,00,00,00
239244600,00000207,false,1,8,08,00,00,00,08,10,00,00
239244700,00000229,false,0,8,00,07,D0,3F,FF,0C,00,00
239244900,00000300,false,0,8,00,80,FF,FF,1F,FF,FF,FF
239245200,00000328,false,0,8,00,00,FF,00,03,00,00,8C
239245400,00000330,false,0,8,01,00,00,00,FF,FF,3F,FF
239245700,00000520,false,0,8,00,00,00,00,00,00,00,00
239246200,00000315,false,0,8,65,02,00,00,00,00,71,01
239246700,00000287,false,1,8,27,10,27,10,27,10,00,00
239246700,00000143,false,0,8,00,00,00,04,08,7D,11,17
239247000,00000387,false,0,8,00,00,7F,BC,00,00,00,00
239248400,00000188,false,0,8,00,00,FF,FF,00,00,00,00
239248700,00000188,false,1,8,00,00,FF,FF,00,00,00,00
239249300,00000285,false,1,8,00,00,02,08,7E,00,08,10
239249200,00000145,false,0,8,4E,20,AF,FF,8F,FF,0F,FF
239249500,00000353,false,0,8,00,00,00,00,00,00,00,00
239251500,00000425,false,0,8,00,21,0A,10,00,00,00,00
239251800,00000345,false,0,8,00,00,FF,FF,00,01,00,00
239251800,00000286,false,1,8,00,00,00,00,00,00,00,00
239252100,0000035A,false,0,8,00,80,80,80,80,00,00,00
239253000,0000022A,false,0,8,00,00,44,00,04,00,04,00
239253200,0000022B,false,0,8,00,FF,00,00,00,00,00,00
239253500,00000154,false,0,8,65,FF,61,65,0A,07,6C,78
239253900,00000236,false,0,8,10,13,3F,FF,40,00,00,F8
239254200,00000200,false,0,8,1E,03,00,00,40,00,40,00
239253800,00000154,false,1,8,65,FF,61,65,0A,07,6C,78
239254400,00000208,false,0,8,00,20,00,5C,00,00,00,00
239254700,00000210,false,0,8,00,00,00,00,40,07,D0,FF
239254900,00000214,false,0,8,00,00,00,00,00,00,00,00
239255200,0000038C,false,0,8,24,01,00,20,00,00,FF,FF
239256200,00000424,false,0,8,05,7C,00,1E,00,03,00,00
239256700,00000143,false,0,8,00,00,00,04,08,7D,11,17
239256900,00000418,false,0,8,50,FF,FF,00,00,00,00,01
239256500,00000424,false,1,8,05,7C,00,1E,00,03,00,00
239256700,00000287,false,1,8,27,10,27,10,27,10,00,00
239259200,00000285,false,1,8,00,00,02,00,00,00,00,10
239259200,00000145,false,0,8,4E,20,AF,FF,8F,FF,0F,FF
239259400,00000346,false,0,8,27,10,05,04,48,00,00,64
239261700,00000370,false,1,8,00,00,00,00,00,00,00,00
239261700,00000359,false,0,8,30,03,7F,80,C0,00,2E,00
239262000,0000035A,false,0,8,00,80,80,80,80,00,00,00
239263900,00000236,false,0,8,10,13,3F,FF,50,00,00,E0
239264100,00000229,false,0,8,00,67,D0,3F,FF,14,00,00
239264300,00000101,false,0,1,01
239264500,00000300,false,0,8,00,00,FF,FF,9F,FF,FF,FF
239264800,00000215,false,0,8,00,00,00,00,00,00,04,00
239265000,00000328,false,0,8,00,00,FF,00,13,00,00,94
239265200,00000330,false,0,8,19,00,00,00,FF,FF,3F,FF
239265500,00000133,false,0,8,FF,FF,00,00,00,00,00,00
239265800,00000308,false,0,8,00,FF,FF,06,00,1F,FF,00
239266000,00000312,false,0,8,3F,FF,06,EE,08,80,07,22
239266200,00000315,false,0,8,69,02,00,00,00,00,71,01
239266500,000007BC,false,0,8,00,00,00,00,00,00,00,00
239266700,00000143,false,0,8,00,00,00,1C,08,7D,11,17
239267000,00000390,false,0,8,08,00,FF,FF,FE,00,00,00
239266700,00000287,false,1,8,27,10,27,10,27,10,00,00
239269200,00000145,false,0,8,4E,20,6F,FF,8F,FF,0F,FF
239269400,00000348,false,0,8,7F,FE,FF,FE,00,00,FF,FE
239269200,00000285,false,1,8,00,00,02,00,00,00,00,10
239270900,0000022A,false,0,8,00,18,84,00,04,00,04,00
239271700,0000032D,false,0,8,00,4E,20,4E,20,33,19,00
239271900,0000035A,false,0,8,00,80,80,80,80,00,0C,00
239273400,00000151,false,0,8,82,FF,FF,FF,FE,02,00,00
239273900,00000236,false,0,8,10,13,3F,FF,60,00,00,C8
239274200,00000200,false,0,8,1E,03,00,00,80,00,80,00
239274400,00000208,false,0,8,00,20,30,5C,00,00,40,00
239274700,00000210,false,0,8,00,00,00,00,40,07,D0,FF
239274900,00000214,false,0,8,00,00,00,00,00,00,03,00
239275200,000002F1,false,0,8,00,80,1A,77,00,28,A5,00
239275400,00000133,false,0,8,6E,E0,03,00,40,00,00,00
239275600,000004A0,false,0,8,FF,FF,33,33,FF,FF,FF,04
239275900,00000308,false,0,8,00,00,00,46,01,66,CA,00
239276100,00000312,false,0,8,66,EE,06,EE,08,EE,07,21
239276500,000006FA,false,0,8,00,4A,4D,46,58,44,47,47
239276700,00000143,false,0,8,00,00,00,1C,08,7D,11,17
239276700,00000287,false,1,8,27,10,27,10,27,10,00,00
239276900,000006FA,false,1,8,00,4A,4D,46,58,44,47,47
239277000,00000418,false,0,8,50,FF,FF,00,00,00,00,01
239278400,00000188,false,0,8,00,00,FF,FF,00,00,00,00
239278700,00000188,false,1,8,00,00,FF,FF,00,00,00,00
239279200,00000145,false,0,8,4E,20,6F,FF,8F,FF,0F,FF
239279400,00000346,false,0,8,27,10,05,44,48,00,00,64
239279200,00000285,false,1,8,00,00,02,00,00,00,00,10
239281600,00000370,false,1,8,00,00,00,00,00,00,00,00
239281500,0000039A,false,0,8,67,F8,00,00,00,00,00,00
239281700,00000359,false,0,8,30,03,7F,80,C0,00,2E,00
239282000,0000035A,false,0,8,00,80,80,80,80,00,0C,00
239283900,00000236,false,0,8,10,13,3F,FF,70,00,00,D0
239284200,00000144,false,0,8,00,00,00,00,00,00,00,00
239284400,00000229,false,0,8,00,67,D0,3F,FF,14,00,00
239284900,00000388,false,1,8,7C,00,00,00,00,00,00,00
239284700,00000215,false,0,8,00,00,00,00,00,00,07,00
239284900,00000300,false,0,8,00,00,FF,FF,9F,FF,FF,FF
239285100,00000328,false,0,8,00,00,FF,00,23,00,00,BC
239285400,00000133,false,0,8,6E,E0,03,00,40,00,00,00
239285600,00000330,false,0,8,19,00,00,00,FF,FF,3F,FF
239285900,00000308,false,0,8,00,00,00,46,01,66,CA,00
239286100,00000388,false,0,8,7C,00,00,00,00,00,00,00
239286600,00000287,false,1,8,27,10,27,10,27,10,00,00
239286400,0000022B,false,0,8,04,FF,00,00,00,00,00,00
239286600,00000312,false,0,8,66,EE,06,EE,08,EE,07,21
239286800,00000143,false,0,8,00,00,00,04,08,7D,11,17
239287100,00000315,false,0,8,2D,02,00,00,00,00,71,01
239287300,000007BC,false,0,8,01,BE,3F,A8,13,00,00,00
239289200,00000285,false,1,8,00,00,02,00,00,00,00,10
239289100,00000145,false,0,8,4E,20,AF,FF,8F,FF,0F,FF
239291100,0000022A,false,0,8,00,18,84,00,04,00,04,00
239291400,00000425,false,0,8,00,21,0A,10,00,00,00,00
239291600,0000035A,false,0,8,00,80,80,80,80,00,00,00
239293900,00000236,false,0,8,10,13,3F,FF,80,00,00,58
239294100,00000200,false,0,8,1E,03,00,00,C0,00,C0,00
239294400,00000208,false,0,8,00,20,30,5C,00,00,40,00
239294600,00000210,false,0,8,00,00,00,00,40,07,D0,FF
239294900,00000214,false,0,8,00,00,00,00,00,00,03,00
239295100,000002F1,false,0,8,00,80,1A,70,00,E8,85,00
239294900,00000676,false,1,8,00,00,00,00,00,00,00,00
239295400,00000133,false,0,8,6E,E0,00,00,40,00,00,00
239295600,00000520,false,0,8,00,00,00,00,00,00,00,00
239295900,00000308,false,0,8,00,00,00,06,00,06,CA,00
239296100,00000312,false,0,8,06,EE,06,EE,08,EE,07,21
239296300,00000424,false,0,8,05,7A,00,1E,00,03,00,00
239296600,00000608,false,0,8,35,3E,00,00,00,00,00,00
239296800,00000143,false,0,8,00,00,00,04,08,7D,11,17
239297100,00000418,false,0,8,50,FF,FF,00,00,00,00,01
239296600,00000424,false,1,8,05,7A,00,1E,00,03,00,00
239296800,00000287,false,1,8,27,10,27,10,27,10,00,00
239299100,00000285,false,1,8,00,00,02,00,00,00,00,10
239299100,00000145,false,0,8,4E,20,AF,FF,8F,FF,0F,FF
239299300,00000346,false,0,8,27,10,05,44,48,00,00,64
239301400,000002E1,false,0,8,00,00,80,1F,FF,00,00,00
239301600,00000370,false,1,8,00,00,00,00,00,00,00,00
239301600,00000359,false,0,8,30,03,7F,80,C0,00,2E,00
239301900,0000030C,false,0,8,00,00,00,00,00,00,00,00
239302100,0000035A,false,0,8,00,80,80,80,80,00,00,00
239303900,00000236,false,0,8,10,13,3F,FF,90,00,00,40
239304100,00000215,false,0,8,00,00,00,00,00,00,07,00
239304400,00000229,false,0,8,00,07,D0,3F,FF,0C,00,00
239304600,00000300,false,0,8,00,80,FF,FF,1F,FF,FF,FF
239304900,00000328,false,0,8,00,00,FF,00,33,00,00,A4
239305100,00000330,false,0,8,01,00,00,00,FF,FF,3F,FF
239304900,00000677,false,1,8,00,00,00,00,00,00,00,00
239306600,00000287,false,1,8,27,10,27,10,27,10,00,00
239305400,00000133,false,0,8,6E,E0,00,00,40,00,00,00
239305600,00000308,false,0,8,00,00,00,06,00,06,CA,00
239305900,00000312,false,0,8,06,EE,06,EE,08,EE,07,21
239306100,000007BC,false,0,8,02,00,07,61,61,00,00,00
239306300,00000315,false,0,8,71,02,00,00,00,00,71,01
239306600,00000143,false,0,8,00,00,00,1C,08,7D,11,17
239308100,00000185,false,0,8,08,00,04,00,00,00,00,00
239308300,00000185,false,1,8,08,00,04,00,00,00,00,00
239309100,00000285,false,1,8,00,00,02,00,00,00,00,10
239309100,00000145,false,0,8,4E,20,6F,FF,8F,FF,0F,FF
239311500,0000035A,false,0,8,00,80,80,80,80,00,0C,00
239312600,0000022A,false,0,8,00,00,44,00,04,00,04,00
239313900,00000236,false,0,8,10,13,10,00,A0,00,00,73
239314100,00000200,false,0,8,1E,03,00,00,00,00,00,00
239314400,00000208,false,0,8,00,20,00,5C,00,00,00,00
239314600,00000210,false,0,8,00,00,00,80,C0,07,D0,FF
239314900,00000214,false,0,8,00,00,00,00,00,00,00,00
239315100,000002F1,false,0,8,00,80,1A,6A,00,E8,6A,00
239315400,00000133,false,0,8,6E,E0,03,00,40,00,00,00
239314900,00000571,false,1,8,00,00,00,00,00,00,00,00
239315600,00000308,false,0,8,00,00,00,46,01,66,CA,00
239315800,00000312,false,0,8,66,EE,06,EE,08,EE,07,21
239316100,00000415,false,0,7,00,00,00,00,00,00,C8
239316500,00000143,false,0,8,00,00,00,1C,08,7D,11,17
239316800,00000418,false,0,8,50,FF,FF,00,00,00,00,01
239316500,00000287,false,1,8,27,10,27,10,27,10,00,00
239319100,00000285,false,1,8,00,00,02,00,00,00,00,10
239319000,00000145,false,0,8,4E,20,6F,FF,8F,FF,0F,FF
239319300,00000346,false,0,8,27,10,05,44,48,00,00,64
239321300,000002E1,false,0,8,00,00,80,1F,FF,00,00,00
239321600,00000359,false,0,8,30,03,7F,80,C0,00,2E,00
239321600,00000370,false,1,8,00,00,00,00,00,00,00,00
239321800,0000035A,false,0,8,00,80,80,80,80,00,0C,00
239323900,00000236,false,0,8,10,13,10,00,B0,00,00,6B
239324100,00000215,false,0,8,00,00,00,00,00,00,04,00
239324300,00000229,false,0,8,00,07,D0,3F,FF,0C,00,00
239324600,00000300,false,0,8,00,80,FF,FF,1F,FF,FF,FF
239324800,00000328,false,0,8,00,00,FF,00,43,00,00,EC
239325100,00000330,false,0,8,01,00,00,00,FF,FF,3F,FF
239325300,00000133,false,0,8,6E,E0,03,00,40,00,00,00
239325600,00000308,false,0,8,00,00,00,46,01,66,CA,00
239325800,00000312,false,0,8,66,EE,06,EE,08,EE,07,21
239326100,000007BC,false,0,8,03,00,00,35,80,00,80,00
239326300,00000315,false,0,8,35,02,00,00,00,00,71,01
239326500,00000287,false,1,8,27,10,27,10,27,10,00,00
239326500,00000143,false,0,8,00,00,00,04,08,7D,11,17
239328100,00000185,false,0,8,08,00,08,00,00,00,00,00
239329000,00000145,false,0,8,4E,20,AF,FF,8F,FF,0F,FF
239328300,00000185,false,1,8,08,00,08,00,00,00,00,00
239329000,00000285,false,1,8,00,00,02,00,00,00,00,10
239331300,00000425,false,0,8,00,21,0A,10,00,00,00,00
239331600,0000035A,false,0,8,00,80,80,80,80,00,00,00
239331800,0000039A,false,0,8,67,F8,00,00,00,00,00,00
239332700,0000022A,false,0,8,00,00,44,00,04,00,04,00
239333300,00000347,false,0,8,01,00,00,16,12,00,02,3A
239333800,00000200,false,0,8,1E,03,00,00,40,00,40,00
239334100,00000208,false,0,8,00,20,00,5C,00,00,00,00
239334300,00000210,false,0,8,00,00,00,80,C0,07,D0,FF
239334600,00000214,false,0,8,00,00,00,00,00,00,00,00
239334800,00000236,false,0,8,10,13,10,00,C0,00,00,23
239335000,000002F1,false,0,8,00,80,1A,66,00,68,58,00
239335300,00000133,false,0,8,6E,E0,00,00,40,00,00,00
239335500,00000134,false,0,8,00,00,00,00,00,00,51,FF
239335800,00000308,false,0,8,00,00,00,06,00,06,CA,00
239336000,00000312,false,0,8,06,EE,06,EE,08,EE,07,21
239336300,00000424,false,0,8,05,7A,00,1E,00,03,00,00
239336500,00000143,false,0,8,00,00,00,04,08,7D,11,17
239336800,00000418,false,0,8,50,FF,FF,00,00,00,00,01
239336500,00000287,false,1,8,27,10,27,10,27,10,00,00
239336700,00000424,false,1,8,05,7A,00,1E,00,03,00,00
239339000,00000145,false,0,8,4E,20,AF,FF,8F,FF,0F,FF
239339200,00000346,false,0,8,27,10,05,44,48,00,00,64
239339000,00000285,false,1,8,00,00,02,00,00,00,00,10
239341300,000002E1,false,0,8,00,00,00,9F,FF,00,00,00
239341600,00000359,false,0,8,30,03,7F,80,C0,00,2E,00
239341800,0000035A,false,0,8,00,80,80,80,80,00,00,00
239341500,00000370,false,1,8,00,00,00,00,00,00,00,00
239343900,00000236,false,0,8,10,13,10,00,D0,00,00,3B
239344100,00000207,false,0,8,08,00,00,00,08,10,00,00
239344400,00000215,false,0,8,00,00,00,00,00,00,04,00
239344000,00000371,false,1,8,00,00,FE,00,00,00,00,00
239344400,00000207,false,1,8,08,00,00,00,08,10,00,00
239344600,00000229,false,0,8,00,67,D0,3F,FF,14,00,00
239344800,00000300,false,0,8,00,00,FF,FF,9F,FF,FF,FF
239345100,00000328,false,0,8,00,00,FF,00,53,00,00,F4
239345300,00000133,false,0,8,6E,E0,00,00,40,00,00,00
239345600,00000330,false,0,8,19,00,00,00,FF,FF,3F,FF
239345800,00000308,false,0,8,00,00,00,06,00,06,CA,00
239346000,00000315,false,0,8,39,02,00,00,00,00,71,01
239346300,00000312,false,0,8,06,EE,06,EE,08,EE,07,21
239346500,00000520,false,0,8,00,00,00,00,00,00,00,00
239346500,00000287,false,1,8,27,10,27,10,27,10,00,00
239346800,000007BC,false,0,8,04,00,00,00,00,00,31,00
239347000,00000143,false,0,8,00,00,00,1C,08,7D,11,17
239347300,00000387,false,0,8,00,00,FF,FF,FF,FF,00,00
239349000,00000285,false,1,8,00,00,02,00,00,00,00,10
239349000,00000145,false,0,8,4E,20,6F,FF,8F,FF,0F,FF
239349200,00000353,false,0,8,00,00,00,00,00,00,00,00
239351300,0000030C,false,0,8,00,00,00,00,00,00,00,00
239351500,00000345,false,0,8,00,00,FF,FF,00,01,00,E0
239351800,0000035A,false,0,8,00,80,80,80,80,00,0C,00
239351500,00000286,false,1,8,00,00,00,00,00,00,00,00
239351700,00000289,false,1,8,27,10,4E,20,00,01,11,00
239352000,00000299,false,1,8,34,36,38,69,35,00,00,00
239352200,00000732,false,1,8,03,E8,03,E8,64,64,05,39
239352500,0000028B,false,1,8,27,10,4E,20,00,00,01,00
239352700,0000029B,false,1,8,35,38,3C,69,39,0A,00,34
239352600,0000022A,false,0,8,00,18,84,00,04,00,04,00
239352800,0000022B,false,0,8,04,FF,00,00,00,00,00,00
239353500,00000154,false,0,8,65,FF,61,65,0A,07,6C,78
239353100,00000734,false,1,8,03,E8,03,E8,64,64,38,38
239353800,00000154,false,1,8,65,FF,61,65,0A,07,6C,78
239353800,00000236,false,0,8,10,13,10,00,E0,00,00,13
239354100,00000200,false,0,8,1E,03,00,00,80,00,80,00
239354300,00000208,false,0,8,00,20,30,5C,00,00,40,00
239354600,00000210,false,0,8,00,00,00,00,40,07,D0,FF
239354800,00000214,false,0,8,00,00,00,00,00,00,03,00
239355000,000002F1,false,0,8,00,80,1A,64,00,68,50,00
239355300,00000133,false,0,8,6E,E0,03,00,40,00,00,00
239355500,0000038C,false,0,8,24,01,08,20,00,00,FF,FF
239355800,00000308,false,0,8,00,00,00,46,01,66,CA,00
239356000,00000312,false,0,8,66,EE,06,EE,08,EE,07,21
239355200,00000288,false,1,8,27,10,4E,20,00,00,01,00
239355400,00000298,false,1,8,35,39,3C,00,39,00,00,34
239355800,0000075A,false,1,8,03,E8,03,E8,64,64,38,39
239356400,00000287,false,1,8,27,10,27,10,27,10,00,00
239356400,00000143,false,0,8,00,00,00,1C,08,7D,11,17
239356700,00000418,false,0,8,50,FF,FF,00,00,00,00,01
239359000,00000285,false,1,8,00,00,02,00,00,00,00,10
239358900,00000145,false,0,8,4E,20,6F,FF,8F,FF,0F,FF
239359200,00000346,false,0,8,27,10,05,44,48,00,00,64
239361300,000002E1,false,0,8,00,00,00,9F,FF,00,00,00
239361500,00000359,false,0,8,00,03,7F,80,C0,00,2E,00
239361800,0000035A,false,0,8,00,80,80,80,80,00,0C,00
239361400,00000370,false,1,8,00,00,00,00,00,00,00,00
239361700,00000289,false,1,8,27,10,4E,20,00,01,11,00
239362000,0000028B,false,1,8,27,10,4E,20,00,00,01,00
239362200,00000566,false,1,8,00,8A,00,00,00,00,00,00
239362500,0000056A,false,1,8,00,8A,00,00,00,00,00,00
239362700,00000667,false,1,8,00,39,34,31,30,41,31,36
239362900,00000669,false,1,8,00,39,34,31,30,41,31,36
239363800,00000236,false,0,8,10,13,10,00,F0,00,00,0B
239363900,00000101,false,0,1,01
239364200,00000229,false,0,8,00,67,D0,3F,FF,14,00,00
239364400,00000215,false,0,8,00,00,00,00,00,00,07,00
239364700,00000300,false,0,8,00,00,FF,FF,9F,FF,FF,FF
239364900,00000328,false,0,8,00,00,FF,00,63,00,00,DC
239364800,00000288,false,1,8,27,10,4E,20,00,00,01,00
239365100,00000564,false,1,8,00,8A,80,00,00,00,00,00
239365400,00000665,false,1,8,00,39,34,31,30,41,31,36
239365100,00000133,false,0,8,6E,E0,03,00,40,00,00,00
239365400,00000330,false,0,8,19,00,00,00,FF,FF,3F,FF
239365600,00000308,false,0,8,00,00,00,46,01,66,CA,00
239365900,00000312,false,0,8,66,EE,06,EE,08,EE,07,21
239366100,00000315,false,0,8,7D,02,00,00,00,00,71,01
239366300,000007BC,false,0,8,05,00,00,FA,3E,00,00,2F
239366600,00000143,false,0,8,00,00,00,04,08,7D,11,17
239366800,00000390,false,0,8,08,00,FF,FF,FE,00,00,00
239366400,00000287,false,1,8,27,10,27,10,27,10,00,00
239368900,00000285,false,1,8,00,00,02,00,00,00,00,10
239368900,00000145,false,0,8,4E,20,AF,FF,8F,FF,0F,FF
239369200,00000348,false,0,8,7F,FE,FF,FE,00,00,FF,FE
239371400,0000032D,false,0,8,00,4E,20,4E,20,33,19,00
239371600,00000425,false,0,8,00,21,0A,10,00,00,00,00
239371800,0000035A,false,0,8,00,80,80,80,80,00,00,00
239371700,00000289,false,1,8,27,10,4E,20,00,01,11,00
239372000,00000567,false,1,8,80,00,00,00,00,00,00,00
239372200,0000028B,false,1,8,27,10,4E,20,00,00,01,00
239372400,00000732,false,1,8,03,E8,03,E8,64,64,05,39
239372700,0000056B,false,1,8,80,00,00,00,00,00,00,00
239372900,00000734,false,1,8,03,E8,03,E8,64,64,38,38
239372700,0000022A,false,0,8,00,18,84,00,04,00,04,00
239373800,00000200,false,0,8,1E,03,00,00,C0,00,C0,00
239374000,00000208,false,0,8,00,20,30,5C,00,00,40,00
239374300,00000210,false,0,8,00,00,00,00,40,07,D0,FF
239374500,00000214,false,0,8,00,00,00,00,00,00,03,00
239374800,00000288,false,1,8,27,10,4E,20,00,00,01,00
239375100,00000565,false,1,8,80,00,00,00,00,00,00,00
239375300,0000075A,false,1,8,03,E8,03,E8,64,64,38,39
239374800,00000236,false,0,8,10,13,10,00,00,00,00,83
239375000,000002F1,false,0,8,00,80,1A,62,00,A8,47,00
239375300,00000133,false,0,8,6E,E0,00,00,40,00,00,00
239375500,000004A0,false,0,8,FF,FF,33,33,FF,FF,FF,04
239375700,00000308,false,0,8,00,00,00,06,00,06,CA,00
239376000,00000312,false,0,8,06,EE,06,EE,08,EE,07,21
239376200,00000424,false,0,8,05,7A,00,1E,00,03,00,00
239376400,00000287,false,1,8,27,10,27,10,27,10,00,00
239376600,00000424,false,1,8,05,7A,00,1E,00,03,00,00
239376900,000006FA,false,1,8,01,32,57,4B,5A,30,30,30
239376400,00000143,false,0,8,00,00,00,04,08,7D,11,17
239376700,000006FA,false,0,8,01,32,57,4B,5A,30,30,30
239376900,00000418,false,0,8,50,FF,FF,00,00,00,00,01
239377900,00000188,false,0,8,00,00,FF,FF,00,00,00,00
239378900,00000145,false,0,8,4E,20,AF,FF,8F,FF,0F,FF
239378200,00000188,false,1,8,00,00,FF,FF,00,00,00,00
239378900,00000285,false,1,8,00,00,02,00,00,00,00,10
239379100,00000346,false,0,8,27,10,05,44,48,00,00,64
239381300,000002E1,false,0,8,00,00,80,1F,FF,00,00,00
239381500,00000359,false,0,8,30,03,7F,80,C0,00,2E,00
239381700,0000039A,false,0,8,67,F8,00,00,00,00,00,00
239381400,00000370,false,1,8,00,00,00,00,00,00,00,00
239381600,00000289,false,1,8,27,10,4E,20,00,01,11,10
239381900,0000056D,false,1,8,00,00,00,00,00,00,00,80
239382000,0000035A,false,0,8,00,80,80,80,80,00,00,00
239382100,0000028B,false,1,8,27,10,4E,20,00,00,01,10
239382400,00000668,false,1,8,01,3D,F2,11,16,00,00,00
239382600,0000056F,false,1,8,00,00,00,00,00,00,00,80
239382900,0000066A,false,1,8,01,4B,E4,87,C8,00,00,00
239383800,00000236,false,0,8,10,13,10,00,10,00,00,9B
239384000,00000144,false,0,8,04,00,00,00,00,00,00,00
239384300,00000229,false,0,8,00,07,D0,3F,FF,0C,00,00
239384800,00000288,false,1,8,27,10,4E,20,00,00,01,10
239385000,00000388,false,1,8,01,00,00,00,00,00,00,02
239385300,0000056C,false,1,8,00,00,00,00,00,00,00,80
239384500,00000215,false,0,8,00,00,00,00,00,00,07,00
239384800,00000300,false,0,8,00,80,FF,FF,1F,FF,FF,FF
239385000,00000133,false,0,8,6E,E0,00,00,40,00,00,00
239385300,00000328,false,0,8,00,00,FF,00,73,00,00,C4
239385500,00000308,false,0,8,00,00,00,06,00,06,CA,00
239385700,00000330,false,0,8,01,00,00,00,FF,FF,3F,FF
239386000,00000312,false,0,8,06,EE,06,EE,08,EE,07,21
239385500,00000666,false,1,8,01,26,94,74,99,00,00,00
239386400,00000287,false,1,8,27,10,27,10,27,10,00,00
239386200,00000315,false,0,8,41,02,00,00,00,00,71,01
239386500,00000388,false,0,8,01,00,00,00,00,00,00,02
239386700,000007BC,false,0,8,06,00,03,00,00,00,80,00
239386900,00000143,false,0,8,00,00,00,1C,08,7D,11,17
239387000,00000377,false,1,8,00,00,00,00,28,28,28,20
239388900,00000285,false,1,8,00,00,02,00,00,00,00,10
239388800,00000145,false,0,8,4E,20,6F,FF,8F,FF,0F,FF
239391300,0000035A,false,0,8,00,80,80,80,80,00,0C,00
239391600,00000289,false,1,8,27,10,4E,20,00,01,11,10
239391800,00000732,false,1,8,03,E8,03,E8,64,64,05,39
239392100,0000028B,false,1,8,27,10,4E,20,00,00,01,10
239392300,00000733,false,1,8,34,35,34,36,10,B0,A1,36
239392500,00000734,false,1,8,03,E8,03,E8,64,64,38,38
239392800,00000735,false,1,8,35,00,35,00,10,B0,A1,38
239392600,0000022A,false,0,8,00,00,44,00,04,00,04,00
239393800,00000236,false,0,8,10,13,10,00,20,00,00,B3
239394000,00000200,false,0,8,1E,03,00,00,00,00,00,00
239394800,00000288,false,1,8,27,10,4E,20,00,00,01,10
239395000,0000075A,false,1,8,03,E8,03,E8,64,64,38,39
239395300,0000075B,false,1,8,35,00,35,00,10,B2,A1,39
239394300,00000208,false,0,8,00,20,00,5C,00,00,00,00
239394500,00000210,false,0,8,00,00,00,80,C0,07,D0,FF
239394800,00000214,false,0,8,00,00,00,00,00,00,00,00
239395000,00000133,false,0,8,6E,E0,03,00,40,00,00,00
239395200,000002F1,false,0,8,00,80,1A,60,00,A8,3E,00
239395500,00000308,false,0,8,00,00,00,46,01,66,CA,00
239395700,00000520,false,0,8,00,00,00,00,00,00,00,00
239396000,00000312,false,0,8,66,EE,06,EE,08,EE,07,21
239396200,00000608,false,0,8,35,3E,00,00,00,00,00,00
239396400,00000143,false,0,8,00,00,00,1C,08,7D,11,17
239396700,00000418,false,0,8,50,FF,FF,00,00,00,00,01
239396300,00000287,false,1,8,27,10,27,10,27,10,00,00
239397000,0000038A,false,1,8,36,35,00,00,04,00,00,00
239398800,00000285,false,1,8,00,00,02,00,00,00,00,10
239398800,00000145,false,0,8,4E,20,6F,FF,8F,FF,0F,FF
239399000,00000346,false,0,8,27,10,05,44,48,00,00,64
239401200,000002E1,false,0,8,00,00,80,1F,FF,00,00,00
239401500,00000359,false,0,8,30,03,7F,80,C0,00,2E,00
239401700,0000030C,false,0,8,00,00,00,00,00,00,00,00
239402000,0000035A,false,0,8,00,80,80,80,80,00,0C,00
239401300,00000370,false,1,8,00,00,00,00,00,00,00,00
239401600,00000289,false,1,8,27,10,4E,20,00,01,11,10
239401900,0000029A,false,1,8,00,4A,4D,46,58,44,47,47
239402100,0000028B,false,1,8,27,10,4E,20,00,00,01,10
239403700,00000229,false,0,8,00,07,D0,3F,FF,0C,00,00
239404000,00000215,false,0,8,00,00,00,00,00,00,04,00
239404200,00000236,false,0,8,10,13,10,00,30,00,00,AB
239404000,00000373,false,1,8,00,00,7F,BC,00,00,80,00
239404700,00000288,false,1,8,27,10,4E,20,00,00,01,10
239404500,00000300,false,0,8,00,80,FF,FF,1F,FF,FF,FF
239404700,00000328,false,0,8,00,00,FF,00,83,00,00,4C
239405000,00000133,false,0,8,6E,E0,03,00,40,00,00,00
239405200,00000330,false,0,8,01,00,00,00,FF,FF,3F,FF
239405400,00000308,false,0,8,00,00,00,46,01,66,CA,00
239405700,00000312,false,0,8,66,EE,06,EE,08,EE,07,21
239406100,00000315,false,0,8,05,02,00,00,00,00,71,01
239406300,00000143,false,0,8,00,00,00,04,08,7D,11,17
239406600,000007BC,false,0,8,07,00,00,00,00,00,00,00
239406300,00000287,false,1,8,27,10,27,10,27,10,00,00
239407000,00000377,false,1,8,00,00,00,00,28,28,28,20
239408100,00000185,false,1,8,08,00,08,00,00,00,00,00
239407900,00000185,false,0,8,08,00,08,00,00,00,00,00
239408800,00000145,false,0,8,4E,20,AF,FF,8F,FF,0F,FF
239408800,00000285,false,1,8,00,00,02,00,00,00,00,10
239409100,00000374,false,1,8,00,00,00,00,00,00,00,F0
239411300,0000035A,false,0,8,00,80,80,80,80,00,00,00
239411500,00000425,false,0,8,00,21,0A,10,00,00,00,00
239411600,00000289,false,1,8,27,10,4E,20,00,01,11,10
239411900,00000566,false,1,8,00,8A,00,00,00,00,00,00
239412100,0000028B,false,1,8,27,10,4E,20,00,00,01,10
239412300,00000732,false,1,8,03,E8,03,E8,64,64,05,39
239412600,0000056A,false,1,8,00,8A,00,00,00,00,00,00
239412800,00000734,false,1,8,03,E8,03,E8,64,64,38,38
239412100,0000032F,false,0,8,7B,10,00,00,00,00,00,00
239412400,0000034A,false,0,8,51,00,01,00,00,00,00,00
239412600,0000022A,false,0,8,00,00,44,00,04,00,04,00
239413700,00000200,false,0,8,1E,03,00,00,40,00,40,00
239414000,00000208,false,0,8,00,20,00,5C,00,00,00,00
239414200,00000210,false,0,8,00,00,00,80,C0,07,D0,FF
239414500,00000214,false,0,8,00,00,00,00,00,00,00,00
239414000,00000373,false,1,8,00,00,7F,BC,00,00,80,00
239414700,00000288,false,1,8,27,10,4E,20,00,00,01,10
239415000,00000564,false,1,8,00,8A,80,00,00,00,00,00
239414700,00000236,false,0,8,10,13,10,00,40,00,00,E3
239415000,00000133,false,0,8,6E,E0,00,00,40,00,00,00
239415200,000002F1,false,0,8,00,80,1A,5F,00,28,39,00
239415400,00000308,false,0,8,00,00,00,06,00,06,CA,00
239415700,00000312,false,0,8,06,EE,06,EE,08,EE,07,21
239416100,00000415,false,0,7,00,00,00,00,00,00,C8
239416300,00000143,false,0,8,00,00,00,04,08,7D,11,17
239416600,00000424,false,0,8,05,7A,00,1E,00,03,00,00
239416800,00000418,false,0,8,50,FF,FF,00,00,00,00,01
239415300,0000075A,false,1,8,03,E8,03,E8,64,64,38,39
239416300,00000287,false,1,8,27,10,27,10,27,10,00,00
239416800,00000424,false,1,8,05,7A,00,1E,00,03,00,00
239417100,00000389,false,1,8,00,00,00,35,35,00,00,00
239418800,00000285,false,1,8,00,00,02,00,00,00,00,10
239418800,00000145,false,0,8,4E,20,AF,FF,8F,FF,0F,FF
239419000,00000346,false,0,8,27,10,05,44,48,00,00,64
239419000,00000375,false,1,8,00,00,00,00,00,00,00,00
239421300,00000370,false,1,8,00,00,00,00,00,00,00,00
239421600,00000289,false,1,8,27,10,4E,20,00,01,11,10
239421200,00000359,false,0,8,30,03,7F,80,C0,00,2E,00
239421500,000002E1,false,0,8,00,00,00,9F,FF,00,00,00
239421700,0000035A,false,0,8,00,80,80,80,80,00,00,00
239421900,00000567,false,1,8,80,00,00,00,00,00,00,00
239422100,0000028B,false,1,8,27,10,4E,20,00,00,01,10
239422400,0000056B,false,1,8,80,00,00,00,00,00,00,00
239423700,00000229,false,0,8,00,67,D0,3F,FF,14,00,00
239424000,00000215,false,0,8,00,00,00,00,00,00,04,00
239424200,00000236,false,0,8,10,13,10,00,50,00,00,FB
239424500,00000300,false,0,8,00,00,FF,FF,9F,FF,FF,FF
239424700,00000328,false,0,8,00,00,FF,00,90,00,00,D8
239425000,00000133,false,0,8,6E,E0,00,00,40,00,00,00
239424000,00000373,false,1,8,00,00,7F,BC,00,00,80,00
239424700,00000288,false,1,8,27,10,4E,20,00,00,01,10
239425000,00000565,false,1,8,80,00,00,00,00,00,00,00
239426200,00000287,false,1,8,27,10,27,10,27,10,00,00
239425200,00000330,false,0,8,19,00,00,00,FF,FF,3F,FF
239425400,00000308,false,0,8,00,00,00,06,00,06,CA,00
239425700,00000347,false,0,8,09,00,00,16,12,00,02,3A
239425900,00000312,false,0,8,06,EE,06,EE,08,EE,07,21
239426200,00000315,false,0,8,09,02,00,00,00,00,71,01
239426400,00000143,false,0,8,00,00,00,1C,08,7D,11,17
239426600,000007BC,false,0,8,08,00,00,00,00,06,00,00
239427800,00000185,false,0,8,08,00,0A,00,00,00,00,00
239426500,000005A1,false,1,8,00,00,00,00,00,00,00,00
239427000,00000377,false,1,8,00,00,00,00,28,28,28,20
239428100,00000185,false,1,8,08,00,0A,00,00,00,00,00
239428800,00000285,false,1,8,00,00,02,00,00,00,00,10
239428700,00000145,false,0,8,4E,20,6F,FF,8F,FF,0F,FF
239429000,0000066B,false,1,8,00,00,00,00,00,00,00,00
239429300,0000066C,false,1,8,00,00,00,00,00,00,00,00
239431300,0000035A,false,0,8,00,80,80,80,80,00,0C,00
239431500,0000039A,false,0,8,67,F8,00,00,00,00,00,00
239432300,0000032F,false,0,8,26,11,00,00,00,00,00,00
239431600,00000289,false,1,8,27,10,4E,20,00,01,11,10
239431900,0000056D,false,1,8,00,00,00,00,00,00,00,80
239432100,0000028B,false,1,8,27,10,4E,20,00,00,01,10
239432400,00000732,false,1,8,03,E8,03,E8,64,64,05,39
239432600,0000056F,false,1,8,00,00,00,00,00,00,00,80
239432800,00000734,false,1,8,03,E8,03,E8,64,64,38,38
239432500,0000022A,false,0,8,00,18,84,00,04,00,04,00
239433700,00000200,false,0,8,1E,03,00,00,80,00,80,00
239433900,00000208,false,0,8,00,20,30,5C,00,00,40,00
239434200,00000210,false,0,8,00,00,00,00,40,07,D0,FF
239434000,00000373,false,1,8,00,00,7F,BC,00,00,80,00
239434700,00000288,false,1,8,27,10,4E,20,00,00,01,10
239435000,0000056C,false,1,8,00,00,00,00,00,00,00,80
239434400,00000214,false,0,8,00,00,00,00,00,00,03,00
239434700,00000236,false,0,8,10,13,10,00,60,00,00,D3
239434900,00000133,false,0,8,6E,E0,03,00,40,00,00,00
239435100,000002F1,false,0,8,00,80,1A,5E,00,68,35,00
239435400,00000134,false,0,8,40,00,00,00,00,00,51,08
239435600,00000308,false,0,8,00,00,00,46,01,66,CA,00
239435200,0000075A,false,1,8,03,E8,03,E8,64,64,38,39
239435700,00000362,false,1,8,00,00,00,00,00,00,00,00
239436200,00000287,false,1,8,27,10,27,10,27,10,00,00
239437000,00000569,false,1,8,0A,80,00,00,00,00,00,00
239436000,00000312,false,0,8,66,EE,06,EE,08,EE,07,21
239436300,00000143,false,0,8,00,00,00,1C,08,7D,11,17
239436500,00000418,false,0,8,50,FF,FF,00,00,00,00,01
239438700,00000285,false,1,8,00,00,02,00,00,00,00,10
239438700,00000145,false,0,8,4E,20,6F,FF,8F,FF,0F,FF
239438900,00000346,false,0,8,27,10,05,44,48,00,00,64
239441200,00000370,false,1,8,05,BE,00,00,00,40,00,00
239441500,00000289,false,1,8,27,10,4E,20,00,01,11,10
239441200,00000359,false,0,8,30,03,7F,80,C0,00,2E,00
239441400,000002E1,false,0,8,00,00,00,9F,FF,00,00,00
239441700,0000035A,false,0,8,00,80,80,80,80,00,0C,00
239441900,0000028B,false,1,8,27,10,4E,20,00,00,01,10
239443700,00000371,false,1,8,00,00,00,00,00,00,00,00
239443700,00000207,false,0,8,08,00,00,00,08,10,0C,00
239443900,00000215,false,0,8,00,00,00,00,00,00,07,00
239444100,00000229,false,0,8,00,67,D0,3F,FF,14,00,00
239444400,00000236,false,0,8,10,13,10,00,70,00,00,CB
239444600,00000300,false,0,8,00,00,FF,FF,9F,FF,FF,FF
239444900,00000133,false,0,8,6E,E0,03,00,40,00,00,00
239444000,00000373,false,1,8,29,29,7F,BC,07,D8,80,12
239444200,00000207,false,1,8,08,00,00,00,08,10,0C,00
239444700,00000288,false,1,8,27,10,4E,20,00,00,01,10
239445800,00000362,false,1,8,00,00,00,00,00,00,00,00
239445100,00000328,false,0,8,00,00,FF,00,A0,00,00,F0
239445400,00000308,false,0,8,00,00,00,46,01,66,CA,00
239445600,00000330,false,0,8,19,00,00,00,FF,FF,3F,FF
239445800,00000312,false,0,8,66,EE,06,EE,08,EE,07,21
239446100,00000315,false,0,8,4D,02,00,00,00,00,71,01
239446300,00000347,false,0,8,09,00,00,16,12,00,02,3A
239446600,00000520,false,0,8,00,00,00,00,00,00,00,00
239446800,000007BC,false,0,8,09,00,00,00,00,00,00,00
239447000,00000143,false,0,8,00,00,00,04,08,7D,11,17
239446200,00000287,false,1,8,27,10,27,10,27,10,00,02
239446900,00000377,false,1,8,04,D2,00,0A,36,36,35,20
239447300,00000387,false,0,8,00,00,7F,BC,07,D8,00,00
239448700,00000145,false,0,8,4E,20,AF,FF,8F,FF,0F,FF
239448900,00000353,false,0,8,00,00,00,00,00,00,00,00
239448700,00000285,false,1,8,00,00,02,0A,7C,00,08,10
239451200,00000286,false,1,8,00,00,00,38,00,00,00,00
239451600,00000289,false,1,8,27,10,4E,20,00,01,11,10
239451900,00000299,false,1,8,34,36,38,05,35,00,00,00
239451100,00000345,false,0,8,00,00,FF,FF,00,01,00,E0
239451400,0000030C,false,0,8,00,00,00,00,00,00,00,00
239451600,0000035A,false,0,8,00,80,80,80,80,00,00,00
239451900,00000425,false,0,8,00,21,0A,10,00,00,00,00
239452400,0000032F,false,0,8,C1,12,00,00,00,00,00,00
239452600,0000022A,false,0,8,00,18,84,00,04,00,04,00
239452900,0000022B,false,0,8,04,FF,00,00,00,00,00,00
239453300,00000154,false,0,8,65,FF,61,65,0A,07,6C,78
239452100,0000028B,false,1,8,27,10,4E,20,00,00,01,10
239452300,00000732,false,1,8,03,E8,03,E8,64,64,05,39
239452600,0000029B,false,1,8,35,38,3C,00,39,0A,00,34
239452800,00000734,false,1,8,03,E8,03,E8,64,64,38,38
239453600,00000154,false,1,8,65,FF,61,65,0A,07,6C,78
239454000,00000373,false,1,8,29,29,7F,BC,07,D8,80,12
239453700,00000200,false,0,8,1E,03,00,00,C0,00,C0,00
239453900,00000208,false,0,8,00,20,30,5C,00,00,40,00
239454200,00000210,false,0,8,00,00,00,00,40,07,D0,FF
239454400,00000214,false,0,8,00,00,00,00,00,00,03,00
239454600,00000236,false,0,8,10,13,10,00,80,00,00,43
239454900,00000133,false,0,8,6E,E0,00,00,40,00,00,00
239454700,00000288,false,1,8,27,10,4E,20,00,00,01,10
239455000,00000298,false,1,8,35,39,3C,38,39,00,00,34
239455200,0000075A,false,1,8,03,E8,03,E8,64,64,38,39
239455600,00000362,false,1,8,00,00,00,00,00,00,00,00
239456200,00000287,false,1,8,27,10,27,10,27,10,00,02
239456600,00000424,false,1,8,05,7B,00,1C,00,03,00,00
239455100,000002F1,false,0,8,00,80,1A,5E,00,A8,35,00
239455400,00000308,false,0,8,00,00,00,06,00,06,CA,00
239455600,0000038C,false,0,8,24,01,08,30,00,00,00,00
239455800,00000312,false,0,8,06,EE,06,EE,08,EE,07,21
239456100,00000143,false,0,8,00,00,00,04,08,7D,11,17
239456400,00000424,false,0,8,05,7B,00,1C,00,03,00,00
239456600,00000418,false,0,8,50,FF,FF,00,00,00,00,01
239456900,00000568,false,1,8,00,02,80,00,00,00,08,80
239458700,00000285,false,1,8,00,00,03,0A,7C,00,08,10
239458700,00000145,false,0,8,4E,20,AF,FF,8F,FF,0F,FF
239458900,00000346,false,0,8,27,10,05,44,48,00,00,64
239461100,00000359,false,0,8,30,03,7F,80,C0,00,2E,00
239461400,000002E1,false,0,8,00,00,80,1F,FF,00,00,00
239461600,0000035A,false,0,8,00,80,80,80,80,00,00,00
239461100,00000370,false,1,8,05,BE,00,00,00,40,00,00
239461500,00000289,false,1,8,27,10,4E,20,00,01,11,10
239461800,00000566,false,1,8,00,8A,08,00,00,00,00,00
239462000,0000028B,false,1,8,27,10,4E,20,00,00,01,10
239462300,0000056A,false,1,8,00,8A,08,00,00,00,00,00
239463500,00000101,false,0,1,41
239463700,00000229,false,0,8,00,07,D0,3F,FF,0C,00,00
239464000,00000215,false,0,8,00,00,00,00,00,00,07,00
239463900,00000373,false,1,8,29,29,7F,BC,07,D8,80,12
239464700,00000288,false,1,8,27,10,4E,20,00,00,01,10
239464200,00000236,false,0,8,10,13,10,00,90,00,00,5B
239464500,00000300,false,0,8,00,80,FF,FF,1F,FF,FF,FF
239464700,00000328,false,0,8,00,00,FF,00,B0,00,00,E8
239465000,00000133,false,0,8,6E,E0,00,00,40,00,00,00
239465200,00000330,false,0,8,01,00,00,00,FF,FF,3F,FF
239465500,00000308,false,0,8,00,00,00,06,00,06,CA,00
239465700,00000312,false,0,8,06,EE,06,EE,08,EE,07,21
239465000,00000564,false,1,8,00,8A,A8,00,00,00,00,00
239465700,00000362,false,1,8,00,00,00,00,00,00,00,00
239466100,00000287,false,1,8,27,10,27,10,27,10,00,02
239466900,00000377,false,1,8,04,D4,00,0A,36,36,35,20
239465900,000007BC,false,0,8,0A,90,17,A0,01,00,00,00
239466200,00000143,false,0,8,00,00,00,1C,08,7D,11,17
239466400,00000315,false,0,8,11,02,00,00,00,00,71,01
239466700,00000390,false,0,8,08,00,FF,FF,FE,00,00,00
239468600,00000145,false,0,8,4E,20,6F,FF,8F,FF,0F,FF
239468900,00000348,false,0,8,7F,FE,FF,FE,00,00,FF,FE
239468700,00000285,false,1,8,00,00,03,0A,7C,00,08,10
239471100,0000032D,false,0,8,00,4E,20,4E,20,33,19,00
239471300,0000035A,false,0,8,00,80,80,80,80,00,0C,00
239471500,00000289,false,1,8,27,10,4E,20,00,01,11,10
239471800,00000567,false,1,8,80,00,00,00,00,00,00,00
239472000,0000028B,false,1,8,27,10,4E,20,00,00,01,10
239472200,00000732,false,1,8,03,E8,03,E8,64,64,05,39
239472500,0000056B,false,1,8,80,00,00,00,00,00,00,00
239472700,00000734,false,1,8,03,E8,03,E8,64,64,38,38
239472400,0000022A,false,0,8,00,00,44,00,04,00,04,00
239472700,0000032F,false,0,8,9C,13,00,00,00,00,00,00
239473600,00000210,false,0,8,00,00,00,80,C0,07,D0,FF
239473900,00000200,false,0,8,1E,03,00,00,00,00,00,00
239474100,00000208,false,0,8,00,20,00,5C,00,00,00,00
239474400,00000214,false,0,8,00,00,00,00,00,00,00,00
239474600,00000236,false,0,8,10,13,10,00,A0,00,00,73
239474800,00000133,false,0,8,6E,E0,03,00,40,00,00,00
239473900,00000373,false,1,8,29,29,7F,BC,07,D8,80,12
239474700,00000288,false,1,8,27,10,4E,20,00,00,01,10
239474900,00000565,false,1,8,80,00,00,00,00,00,00,00
239475200,0000075A,false,1,8,03,E8,03,E8,64,64,38,39
239475600,00000362,false,1,8,00,00,00,00,00,00,00,00
239475100,000002F1,false,0,8,00,80,1A,5D,00,E8,31,00
239475300,00000308,false,0,8,00,00,00,46,01,66,CA,00
239475600,000004A0,false,0,8,FF,FF,33,33,FF,FF,FF,04
239475800,00000312,false,0,8,66,EE,06,EE,08,EE,07,21
239476100,000006FA,false,0,8,02,38,36,37,00,00,00,00
239476300,00000143,false,0,8,00,00,00,1C,08,7D,11,17
239476600,00000418,false,0,8,50,FF,FF,00,00,00,00,01
239476100,00000287,false,1,8,27,10,27,10,27,10,00,02
239476400,000006FA,false,1,8,02,38,36,37,00,00,00,00
239476600,000005A1,false,1,8,00,00,00,20,00,00,00,22
239476900,00000563,false,1,8,00,00,00,02,02,00,00,00
239478200,00000188,false,1,8,00,00,FF,FF,00,00,00,00
239477900,00000188,false,0,8,00,00,FF,FF,00,00,00,00
239478600,00000145,false,0,8,4E,20,6F,FF,8F,FF,0F,FF
239478800,00000346,false,0,8,27,10,05,44,48,00,00,64
239478600,00000285,false,1,8,00,00,03,0A,7C,00,08,10
239481100,00000359,false,0,8,30,03,7F,80,C0,00,2E,00
239481300,000002E1,false,0,8,00,00,80,1F,FF,00,00,00
239481500,0000035A,false,0,8,00,80,80,80,80,00,0C,00
239481100,00000370,false,1,8,05,BE,00,00,00,40,00,00
239481500,00000289,false,1,8,27,10,4E,20,00,01,11,10
239481800,0000056D,false,1,8,00,00,00,00,00,00,00,80
239482000,0000028B,false,1,8,27,10,4E,20,00,00,01,10
239482300,0000056F,false,1,8,00,00,00,00,00,00,00,80
239481800,0000039A,false,0,8,67,F8,00,00,00,00,00,00
239483600,00000144,false,0,8,04,00,00,00,00,00,00,00
239483800,00000229,false,0,8,00,07,D0,3F,FF,0C,00,00
239483900,00000373,false,1,8,29,29,7F,BC,07,D8,80,12
239484700,00000288,false,1,8,27,10,4E,20,00,00,01,10
239484100,00000215,false,0,8,00,00,00,00,00,00,04,00
239484300,00000236,false,0,8,10,13,10,00,B0,00,00,6B
239484600,00000300,false,0,8,00,80,FF,FF,1F,FF,FF,FF
239484800,00000133,false,0,8,6E,E0,03,00,40,00,00,00
239485000,00000328,false,0,8,00,00,FF,00,C0,00,00,A0
239485300,00000308,false,0,8,00,00,00,46,01,66,CA,00
239484900,00000388,false,1,8,01,00,00,00,00,00,00,02
239485200,0000056C,false,1,8,00,00,00,00,00,00,00,80
239485600,00000362,false,1,8,00,00,00,00,00,00,00,00
239486100,00000287,false,1,8,27,10,27,10,27,10,00,02
239485500,00000330,false,0,8,01,00,00,00,FF,FF,3F,FF
239485800,00000312,false,0,8,66,EE,06,EE,08,EE,07,21
239486000,00000315,false,0,8,55,02,00,00,00,00,71,01
239486300,00000388,false,0,8,01,00,00,00,00,00,00,02
239486500,000006FF,false,0,8,4D,01,0A,96,60,00,00,00
239486700,00000143,false,0,8,00,00,00,04,08,7D,11,17
239487000,000007BC,false,0,8,0B,00,00,00,00,00,00,80
239486900,00000377,false,1,8,04,D4,00,0A,36,36,35,20
239488600,00000285,false,1,8,00,00,03,0A,7C,00,08,10
239488600,00000145,false,0,8,4E,20,AF,FF,8F,FF,0F,FF
239491100,0000035A,false,0,8,00,80,80,80,80,00,00,00
239491300,00000425,false,0,8,00,21,0A,10,00,00,00,00
239491500,00000289,false,1,8,27,10,4E,20,0C,01,11,10
239491800,00000732,false,1,8,03,E8,03,E8,64,64,05,39
239492000,0000028B,false,1,8,27,10,4E,20,0C,00,01,10
239492200,00000733,false,1,8,34,35,34,36,10,B0,A1,36
239492500,00000734,false,1,8,03,E8,03,E8,64,64,38,38
239492700,00000735,false,1,8,35,00,35,00,10,B0,A1,38
239493900,00000373,false,1,8,29,29,7F,BC,07,D8,80,12
239494700,00000288,false,1,8,27,10,4E,20,0C,00,01,10
239494900,0000075A,false,1,8,03,E8,03,E8,64,64,38,39
239495200,0000075B,false,1,8,35,00,35,00,10,B2,A1,39
239495500,00000362,false,1,8,00,00,00,00,00,00,00,00
239496000,00000287,false,1,8,27,10,27,10,27,10,00,02
239491600,000006FD,false,0,8,01,8B,22,41,10,04,C8,18
239492400,0000022A,false,0,8,00,00,44,00,04,00,04,00
239492700,0000032F,false,0,8,12,14,00,00,00,00,00,00
239493500,00000210,false,0,8,00,00,00,80,C0,07,D0,FF
239493800,00000200,false,0,8,1E,03,00,00,40,00,40,00
239494000,00000208,false,0,8,00,20,00,5C,00,00,00,00
239494300,00000214,false,0,8,00,00,00,00,00,00,00,00
239494500,00000236,false,0,8,10,13,10,00,C0,00,00,23
239494800,00000133,false,0,8,6E,E0,00,00,40,00,00,00
239495000,000002F1,false,0,8,00,80,1A,51,00,27,FB,00
239495300,00000308,false,0,8,00,00,00,06,00,06,CA,00
239495500,00000520,false,0,8,00,00,00,00,00,00,00,00
239495700,00000312,false,0,8,06,EE,06,EE,08,EE,07,21
239496000,00000608,false,0,8,35,3E,00,00,00,00,00,00
239496200,00000143,false,0,8,00,00,00,04,08,7D,11,17
239496500,00000424,false,0,8,05,7B,00,10,00,03,00,00
239496700,00000418,false,0,8,50,FF,FF,00,00,00,00,01
239497000,000006FB,false,0,8,01,80,1C,04,83,0A,00,40
239496800,00000424,false,1,8,05,7B,00,10,00,03,00,00
239497000,0000038A,false,1,8,36,35,00,00,04,00,00,00
239498600,00000285,false,1,8,00,00,03,0A,7C,00,08,10
239498500,00000145,false,0,8,4E,20,AF,FF,8F,FF,0F,FF
239498800,00000346,false,0,8,27,10,05,44,48,00,00,64
239501000,00000359,false,0,8,30,03,7F,80,C0,00,2E,00
239501200,000002E1,false,0,8,00,00,00,9F,FF,00,00,00
239501500,0000035A,false,0,8,00,80,80,80,80,00,00,00
239501000,00000370,false,1,8,05,BE,00,00,00,40,00,00
239501500,00000289,false,1,8,27,10,4E,20,0C,01,11,10
239501800,0000029A,false,1,8,01,32,57,4B,5A,30,30,30
239502000,0000028B,false,1,8,27,10,4E,20,0C,00,01,10
239501700,0000030C,false,0,8,00,00,00,00,00,00,00,00
239502000,000005FE,false,0,8,41,28,D5,15,20,18,08,6B
239503400,00000229,false,0,8,00,67,D0,3F,FF,14,00,00
239503700,00000215,false,0,8,00,00,00,00,00,00,04,00
239503900,00000373,false,1,8,29,29,7F,BC,07,D8,80,12
239504600,00000288,false,1,8,27,10,4E,20,0C,00,01,10
239503900,00000236,false,0,8,10,13,10,00,D0,00,00,3B
239504100,00000300,false,0,8,00,00,FF,FF,9F,FF,FF,FF
239504400,00000328,false,0,8,00,00,FF,00,D0,00,00,B8
239504600,00000330,false,0,8,19,00,00,00,FF,FF,3F,FF
239504900,00000133,false,0,8,6E,E0,00,00,40,00,00,00
239505100,00000308,false,0,8,00,00,00,06,00,06,CA,00
239505400,00000312,false,0,8,06,EE,06,EE,08,EE,07,21
239505800,000007BC,false,0,8,0C,00,36,B0,00,00,00,00
239506100,00000143,false,0,8,00,00,00,1C,08,7D,11,17
239505600,00000362,false,1,8,00,00,00,00,00,00,00,00
239506000,00000287,false,1,8,27,10,27,10,27,10,00,02
239506900,00000377,false,1,8,04,D6,00,0A,36,36,35,20
239506300,00000315,false,0,8,59,02,00,00,00,00,71,01
239507800,00000185,false,0,8,08,00,0A,00,00,00,00,00
239508100,00000185,false,1,8,08,00,0A,00,00,00,00,00
239508500,00000285,false,1,8,00,00,03,0A,7C,00,08,10
239508500,00000145,false,0,8,4E,20,6F,FF,8F,FF,0F,FF
239509300,00000222,false,0,8,00,00,00,00,04,00,00,00
239509500,0000022D,false,0,8,00,00,47,FF,00,00,00,00
239508900,00000374,false,1,8,0A,82,5B,00,3C,3C,00,30
239509800,0000022E,false,0,8,1E,00,00,00,00,00,00,00
239510100,00000366,false,0,8,01,00,00,00,00,00,00,00
239511000,0000035A,false,0,8,00,80,80,80,80,00,0C,00
239511500,00000289,false,1,8,27,10,4E,20,0C,01,11,10
239511800,00000566,false,1,8,00,8A,08,00,00,00,00,80
239512000,0000028B,false,1,8,27,10,4E,20,0C,00,01,10
239512400,0000022A,false,0,8,00,18,84,00,04,00,04,00
239512700,0000032F,false,0,8,4F,15,00,00,00,00,00,00
239512900,0000034A,false,0,8,51,00,01,00,00,00,00,00
239512300,00000732,false,1,8,03,E8,03,E8,64,64,05,39
239512500,0000056A,false,1,8,00,8A,08,00,00,00,00,80
239512800,00000734,false,1,8,03,E8,03,E8,64,64,38,38
239513500,00000210,false,0,8,00,00,00,00,40,07,D0,FF
239513700,00000200,false,0,8,1E,03,00,00,80,00,80,00
239514000,00000208,false,0,8,00,20,30,5C,00,00,40,00
239514200,00000214,false,0,8,00,00,00,00,00,00,03,00
239514500,00000236,false,0,8,10,13,10,00,E0,00,00,13
239514700,00000133,false,0,8,6E,E0,03,00,40,00,00,00
239513900,00000373,false,1,8,29,29,7F,BC,07,D8,80,12
239514600,00000288,false,1,8,27,10,4E,20,0C,00,01,10
239514900,00000564,false,1,8,00,8A,A8,00,00,00,00,80
239515100,0000075A,false,1,8,03,E8,03,E8,64,64,38,39
239515600,00000362,false,1,8,00,00,00,00,00,00,00,00
239515000,000002F1,false,0,8,00,80,1A,4F,00,27,F2,00
239515200,00000308,false,0,8,00,00,00,46,01,66,CA,00
239515400,00000312,false,0,8,66,EE,06,EE,08,EE,07,21
239515800,00000415,false,0,7,00,00,00,00,00,00,C8
239516000,00000143,false,0,8,00,00,00,1C,08,7D,11,17
239516300,00000418,false,0,8,50,FF,FF,00,00,00,00,01
239516000,00000287,false,1,8,27,10,27,10,27,10,00,02
239516900,00000389,false,1,8,00,00,00,35,35,00,00,00
239518100,00000366,false,0,8,01,00,00,00,00,00,00,00
239518500,00000145,false,0,8,4E,20,6F,FF,8F,FF,0F,FF
239518700,00000346,false,0,8,27,10,05,44,48,00,00,64
239518500,00000285,false,1,8,00,00,03,0A,7C,00,08,10
239518900,00000375,false,1,8,0F,0F,00,01,F4,00,00,00
239521000,00000359,false,0,8,30,03,7F,80,C0,00,2E,00
239521200,000002E1,false,0,8,00,00,00,9F,FF,00,00,00
239521500,0000035A,false,0,8,00,80,80,80,80,00,0C,00
239521000,00000370,false,1,8,05,BE,00,00,00,40,00,00
239521500,00000289,false,1,8,27,10,4E,20,0C,01,11,10
239521700,00000567,false,1,8,80,00,00,00,00,00,00,00
239522000,0000028B,false,1,8,27,10,4E,20,0C,00,01,10
239522200,0000056B,false,1,8,80,00,00,00,00,00,00,00
239523500,00000215,false,0,8,00,00,00,00,00,00,07,00
239523700,00000229,false,0,8,00,67,D0,3F,FF,14,00,00
239523900,00000236,false,0,8,10,13,10,00,F0,00,00,0B
239523900,00000373,false,1,8,29,29,7F,BC,07,D8,80,12
239524600,00000288,false,1,8,27,10,4E,20,0C,00,01,10
239524900,00000565,false,1,8,80,00,00,00,00,00,00,00
239524200,00000300,false,0,8,00,00,FF,FF,9F,FF,FF,FF
239524400,00000328,false,0,8,00,00,FF,00,E0,00,00,90
239524700,00000133,false,0,8,6E,E0,03,00,40,00,00,00
239524900,00000330,false,0,8,19,00,00,00,FF,FF,3F,FF
239525200,00000308,false,0,8,00,00,00,46,01,66,CA,00
239525400,00000312,false,0,8,66,EE,06,EE,08,EE,07,21
239525800,000007BC,false,0,8,0D,00,00,00,00,00,00,00
239526000,00000143,false,0,8,00,00,00,04,08,7D,11,17
239525600,00000362,false,1,8,00,00,00,00,00,00,00,00
239526000,00000287,false,1,8,27,10,27,10,27,10,00,02
239526400,000005A1,false,1,8,00,00,00,20,00,00,00,22
239526300,00000315,false,0,8,1D,02,00,00,00,00,71,01
239528200,0000022D,false,0,8,00,00,47,FF,00,00,00,00
239528500,00000145,false,0,8,4E,20,AF,FF,8F,FF,0F,FF
239526800,00000377,false,1,8,04,D6,00,0A,36,36,35,20
239528500,00000285,false,1,8,00,00,03,0A,7C,00,08,10
239530300,00000110,false,0,6,01,00,00,00,00,00
239530900,0000035A,false,0,8,00,80,80,80,80,00,00,00
239531100,00000100,false,0,4,E2,21,6B,1C
239531400,00000289,false,1,8,27,10,4E,20,0C,01,11,10
239531700,0000056D,false,1,8,00,00,00,00,00,00,00,80
239531900,0000028B,false,1,8,27,10,4E,20,0C,00,01,10
239531400,00000425,false,0,8,00,21,0A,10,00,00,00,00
239531600,0000039A,false,0,8,67,F8,00,00,00,00,00,00
239532400,0000022A,false,0,8,00,18,84,00,04,00,04,00
239532800,0000032F,false,0,8,A8,16,00,00,00,00,00,00
239533100,00000347,false,0,8,09,00,00,16,12,00,02,3A
239533400,00000210,false,0,8,00,00,00,00,40,07,D0,FF
239532200,00000732,false,1,8,03,E8,03,E8,64,64,05,39
239532400,0000056F,false,1,8,00,00,00,00,00,00,00,80
239532700,00000734,false,1,8,03,E8,03,E8,64,64,38,38
239533800,00000373,false,1,8,29,29,7F,BC,07,D8,80,12
239533700,00000200,false,0,8,1E,03,00,00,C0,00,C0,00
239533900,00000208,false,0,8,00,20,30,5C,00,00,40,00
239534200,00000214,false,0,8,00,00,00,00,00,00,03,00
239534400,00000236,false,0,8,10,13,10,00,00,00,00,83
239534700,00000133,false,0,8,6E,E0,00,00,40,00,00,00
239534900,000002F1,false,0,8,00,80,1A,56,00,E8,11,00
239534400,00000288,false,1,8,27,10,4E,20,0C,00,01,10
239534700,0000056C,false,1,8,00,00,00,00,00,00,00,80
239535000,0000075A,false,1,8,03,E8,03,E8,64,64,38,39
239535500,00000362,false,1,8,00,00,00,00,00,00,00,00
239535900,00000287,false,1,8,27,10,27,10,27,10,00,02
239536500,00000424,false,1,8,05,7B,00,10,00,03,00,00
239535200,00000134,false,0,8,40,00,00,00,00,00,51,08
239535400,00000308,false,0,8,00,00,00,06,00,06,CA,00
239535800,00000312,false,0,8,06,EE,06,EE,08,EE,07,21
239536000,00000143,false,0,8,00,00,00,04,08,7D,11,17
239536200,00000424,false,0,8,05,7B,00,10,00,03,00,00
239536500,00000418,false,0,8,50,FF,FF,00,00,00,00,01
239536800,00000664,false,1,8,01,83,06,32,F3,00,00,00
239538500,00000285,false,1,8,00,00,03,0A,7C,00,08,10
239538400,00000145,false,0,8,4E,20,AF,FF,8F,FF,0F,FF
239538700,0000022E,false,0,8,1E,00,00,00,00,00,00,00
239538900,00000346,false,0,8,27,10,29,44,48,00,00,64
239540900,00000359,false,0,8,00,03,7F,80,C0,00,2E,00
239541100,000002E1,false,0,8,00,00,80,1F,FF,00,00,00
239541400,0000035A,false,0,8,00,80,80,80,80,00,00,00
239540900,00000370,false,1,8,05,BE,00,00,00,40,00,00
239541400,00000289,false,1,8,27,10,4E,20,0C,01,11,10
239541900,0000028B,false,1,8,27,10,4E,20,0C,00,01,10
239543400,00000215,false,0,8,00,00,00,00,00,00,07,00
239543700,00000207,false,0,8,08,00,00,00,08,10,0C,00
239543900,00000229,false,0,8,00,07,D0,3F,FF,0C,00,00
239543400,00000371,false,1,8,00,00,00,00,00,00,00,00
239543800,00000373,false,1,8,29,29,7F,BC,07,D8,80,12
239544100,00000207,false,1,8,08,00,00,00,08,10,0C,00
239544100,00000236,false,0,8,10,13,10,00,10,00,00,9B
239544400,00000300,false,0,8,00,80,FF,FF,1F,FF,FF,FF
239544600,00000133,false,0,8,6E,E0,00,00,40,00,00,00
239544900,00000328,false,0,8,00,00,FF,00,00,00,00,00
239545100,00000308,false,0,8,00,00,00,06,00,06,CA,00
239545400,00000330,false,0,8,01,00,00,00,FF,FF,3F,FF
239544600,00000288,false,1,8,27,10,4E,20,0C,00,01,10
239545600,00000362,false,1,8,00,00,00,00,00,00,00,00
239545900,00000287,false,1,8,27,10,27,10,27,10,00,02
239546800,00000377,false,1,8,04,D6,00,0A,36,36,35,20
239545600,00000312,false,0,8,06,EE,06,EE,08,EE,07,21
239545800,00000315,false,0,8,21,02,00,00,00,00,71,01
239546100,00000520,false,0,8,00,00,00,00,00,00,00,00
239546300,000007BC,false,0,8,0E,00,00,00,00,00,00,00
239546600,00000143,false,0,8,00,00,00,1C,08,7D,11,17
239546800,00000387,false,0,8,00,00,7F,BC,07,D8,3C,3C
239548400,00000285,false,1,8,00,00,03,0A,7C,00,08,10
239548200,0000022D,false,0,8,00,18,87,FF,00,00,00,00
239548500,00000145,false,0,8,4E,20,6F,FF,8F,FF,0F,FF
239548700,00000353,false,0,8,00,00,00,00,00,00,00,00
239550300,00000111,false,0,6,31,7B,14,00,00,00
239550900,00000345,false,0,8,00,00,FF,FF,00,01,00,E0
239551100,0000030C,false,0,8,00,00,00,00,00,00,00,00
239551400,0000035A,false,0,8,00,80,80,80,80,00,0C,00
239550900,00000286,false,1,8,00,00,00,39,00,00,0A,00
239551400,00000289,false,1,8,27,10,4E,20,0C,01,11,10
239551700,00000299,false,1,8,34,36,38,3D,35,00,00,00
239551900,0000028B,false,1,8,27,10,4E,20,0C,00,01,10
239552200,00000732,false,1,8,03,E8,03,E8,64,64,05,39
239552400,0000029B,false,1,8,35,38,3C,38,39,0A,00,34
239552300,0000022A,false,0,8,00,00,44,00,04,00,04,00
239552600,0000022B,false,0,8,04,FF,00,00,00,00,00,00
239552900,0000032F,false,0,8,F5,17,00,00,00,00,00,00
239552600,00000734,false,1,8,03,E8,03,E8,64,64,38,38
239553400,00000154,false,1,8,66,FF,61,65,0A,07,6C,78
239553800,00000373,false,1,8,29,29,7F,BC,07,D8,80,12
239553200,00000154,false,0,8,66,FF,61,65,0A,07,6C,78
239553400,00000200,false,0,8,1E,03,00,00,00,00,00,00
239553700,00000208,false,0,8,00,20,00,5C,00,00,00,00
239553900,00000210,false,0,8,00,00,00,80,C0,07,D0,FF
239554200,00000214,false,0,8,00,00,00,00,00,00,00,00
239554400,00000236,false,0,8,10,13,10,00,20,00,00,B3
239554600,00000133,false,0,8,6E,E0,03,00,40,00,00,00
239554900,000002F1,false,0,8,00,80,1A,57,00,E8,15,00
239554700,00000288,false,1,8,27,10,4E,20,0C,00,01,10
239554900,00000298,false,1,8,35,39,3C,39,39,00,00,34
239555100,0000075A,false,1,8,03,E8,03,E8,64,64,38,39
239555500,00000362,false,1,8,00,00,00,00,00,00,00,00
239555900,00000287,false,1,8,27,10,27,10,27,10,00,02
239556800,00000663,false,1,8,00,39,34,38,31,41,31,35
239555100,00000308,false,0,8,00,00,00,46,01,66,CA,00
239555400,0000038C,false,0,8,24,01,08,30,00,00,00,00
239555600,00000312,false,0,8,66,EE,06,EE,08,EE,07,21
239555800,00000143,false,0,8,00,00,00,1C,08,7D,11,17
239556100,00000418,false,0,8,50,FF,FF,00,00,00,00,01
239558200,00000222,false,0,8,00,00,00,00,04,00,00,00
239558400,00000145,false,0,8,4E,20,6F,FF,8F,FF,0F,FF
239558700,00000346,false,0,8,27,10,29,44,48,00,00,64
239558400,00000285,false,1,8,00,00,03,0A,7C,00,08,10
239560900,00000359,false,0,8,30,03,7F,80,C0,00,2E,00
239561100,000002E1,false,0,8,00,00,80,1F,FF,00,00,00
239561400,0000035A,false,0,8,00,80,80,80,80,00,0C,00
239560900,00000370,false,1,8,05,BE,00,00,00,40,00,00
239561400,00000289,false,1,8,27,10,4E,20,0C,01,11,10
239561700,00000566,false,1,8,00,8A,08,00,00,00,00,80
239562000,0000028B,false,1,8,27,10,4E,20,0C,00,01,10
239562200,0000056A,false,1,8,00,8A,08,00,00,00,00,80
239563200,00000101,false,0,1,44
239563500,00000215,false,0,8,00,00,00,00,00,00,04,00
239563700,00000229,false,0,8,00,07,D0,3F,FF,0C,00,00
239563800,00000373,false,1,8,29,29,7F,BC,07,D8,80,12
239564600,00000288,false,1,8,27,10,4E,20,0C,00,01,10
239564800,00000564,false,1,8,00,8A,A8,00,00,00,00,80
239563900,00000236,false,0,8,10,13,10,00,30,00,00,AB
239564200,00000300,false,0,8,00,80,FF,FF,1F,FF,FF,FF
239564400,00000328,false,0,8,00,00,FF,00,10,00,00,18
239564700,00000133,false,0,8,6E,E0,03,00,40,00,00,00
239564900,00000330,false,0,8,01,00,00,00,FF,FF,3F,FF
239565200,00000308,false,0,8,00,00,00,46,01,66,CA,00
239565400,00000312,false,0,8,66,EE,06,EE,08,EE,07,21
239565500,00000362,false,1,8,00,00,00,00,00,00,00,00
239565900,00000287,false,1,8,27,10,27,10,27,10,00,02
239566800,00000377,false,1,8,04,D6,00,0A,36,36,35,20
239565700,000007BC,false,0,8,0F,00,00,00,00,00,00,00
239565900,00000143,false,0,8,00,00,00,04,08,7D,11,17
239566200,00000315,false,0,8,65,02,00,00,00,00,72,01
239566400,00000390,false,0,8,08,00,FF,FF,FE,00,00,00
239568200,0000022D,false,0,8,00,18,87,FF,00,00,00,00
239568400,00000145,false,0,8,4E,20,AF,FF,8F,FF,0F,FF
239568700,00000348,false,0,8,7F,FE,FF,FE,00,00,FF,FE
239568400,00000285,false,1,8,00,00,03,0A,7C,00,08,10
239570800,0000032D,false,0,8,00,4E,20,4E,20,33,19,00
239571100,0000035A,false,0,8,00,80,80,80,80,00,00,00
239571300,00000425,false,0,8,00,21,0A,10,00,00,00,00
239571400,00000289,false,1,8,27,10,4E,20,0C,01,11,10
239571700,00000567,false,1,8,80,00,00,00,00,00,00,00
239571900,0000028B,false,1,8,27,10,4E,20,0C,00,01,10
239572300,0000022A,false,0,8,00,00,44,00,04,00,04,00
239573100,0000032F,false,0,8,A9,18,00,00,00,00,00,00
239573300,00000210,false,0,8,00,00,00,80,C0,07,D0,FF
239572200,00000732,false,1,8,03,E8,03,E8,64,64,05,39
239572400,0000056B,false,1,8,80,00,00,00,00,00,00,00
239572700,00000734,false,1,8,03,E8,03,E8,64,64,38,38
239573800,00000373,false,1,8,29,29,7F,BC,07,D8,80,12
239574500,00000288,false,1,8,27,10,4E,20,0C,00,01,10
239574800,00000565,false,1,8,80,00,00,00,00,00,00,00
239573600,00000200,false,0,8,1E,03,00,00,40,00,40,00
239573800,00000208,false,0,8,00,20,00,5C,00,00,00,00
239574100,00000214,false,0,8,00,00,00,00,00,00,00,00
239574300,00000236,false,0,8,10,13,10,00,40,00,00,E3
239574600,00000133,false,0,8,6E,E0,00,00,40,00,00,00
239574800,000002F1,false,0,8,00,80,1A,50,00,27,F6,00
239575000,00000308,false,0,8,00,00,00,06,00,06,CA,00
239575300,000004A0,false,0,8,FF,FF,33,33,FF,FF,FF,04
239575500,00000312,false,0,8,06,EE,06,EE,08,EE,07,21
239575800,000006FA,false,0,8,00,4A,4D,46,58,44,47,47
239575100,0000075A,false,1,8,03,E8,03,E8,64,64,38,39
239575300,00000362,false,1,8,00,00,00,00,00,00,00,00
239575800,00000287,false,1,8,27,10,27,10,27,10,00,02
239576100,000006FA,false,1,8,00,4A,4D,46,58,44,47,47
239576300,000005A1,false,1,8,00,00,00,20,00,00,00,22
239576500,00000424,false,1,8,05,7B,00,10,00,03,00,00
239576000,00000143,false,0,8,00,00,00,04,08,7D,11,17
239576200,00000424,false,0,8,05,7B,00,10,00,03,00,00
239576500,00000418,false,0,8,50,FF,FF,00,00,00,00,01
239577700,00000188,false,0,8,00,00,FF,FF,00,00,00,00
239578000,00000188,false,1,8,00,00,FF,FF,00,00,00,00
239578300,00000285,false,1,8,00,00,03,0A,7C,00,08,10
239578300,00000145,false,0,8,4E,20,AF,FF,8F,FF,0F,FF
239578500,00000346,false,0,8,27,10,29,44,48,00,00,64
239580800,00000359,false,0,8,00,03,7F,80,C0,00,2E,00
239581000,000002E1,false,0,8,00,00,00,9F,FF,00,00,00
239581300,0000035A,false,0,8,00,80,80,80,80,00,00,00
239580800,00000370,false,1,8,05,BE,00,00,00,40,00,00
239581400,00000289,false,1,8,27,10,4E,20,0C,01,11,10
239581700,0000056D,false,1,8,00,00,00,00,00,00,00,80
239581900,0000028B,false,1,8,27,10,4E,20,0C,00,01,10
239582200,0000056F,false,1,8,00,00,00,00,00,00,00,80
239581500,0000039A,false,0,8,67,F8,00,00,00,00,00,00
239583300,00000144,false,0,8,04,00,00,00,00,00,00,00
239583500,00000215,false,0,8,00,00,00,00,00,00,04,00
239583800,00000373,false,1,8,29,29,7F,BC,07,D8,80,12
239583800,00000229,false,0,8,00,67,D0,3F,FF,14,00,00
239584000,00000236,false,0,8,10,13,10,00,50,00,00,FB
239584300,00000300,false,0,8,00,00,FF,FF,9F,FF,FF,FF
239584500,00000133,false,0,8,6E,E0,00,00,40,00,00,00
239584800,00000328,false,0,8,00,00,FF,00,20,00,00,30
239585000,00000308,false,0,8,00,00,00,06,00,06,CA,00
239584500,00000288,false,1,8,27,10,4E,20,0C,00,01,10
239584700,00000388,false,1,8,01,00,00,00,00,00,00,02
239585000,0000056C,false,1,8,00,00,00,00,00,00,00,80
239585400,00000362,false,1,8,00,00,00,00,00,00,00,00
239585800,00000287,false,1,8,27,10,27,10,27,10,00,02
239585200,00000330,false,0,8,19,00,00,00,FF,FF,3F,FF
239585500,00000312,false,0,8,06,EE,06,EE,08,EE,07,21
239585700,00000388,false,0,8,01,00,00,00,00,00,00,02
239586000,00000315,false,0,8,69,02,00,00,00,00,71,01
239586200,00000143,false,0,8,00,00,00,1C,08,7D,11,17
239586400,000007BC,false,0,8,10,00,00,00,00,00,00,5E
239586800,00000377,false,1,8,04,D8,00,0A,36,36,35,20
239588300,00000285,false,1,8,00,00,03,0A,7C,00,08,10
239588300,00000145,false,0,8,4E,20,6F,FF,8F,FF,0F,FF
239588500,0000022D,false,0,8,00,00,47,FF,00,00,00,00
239590700,0000035A,false,0,8,00,80,80,80,80,00,0C,00
239591400,00000289,false,1,8,27,10,4E,20,0C,01,11,10
239591700,00000732,false,1,8,03,E8,03,E8,64,64,05,39
239591900,0000028B,false,1,8,27,10,4E,20,0C,00,01,10
239592300,0000022A,false,0,8,00,18,84,00,04,00,04,00
239593200,0000032F,false,0,8,F4,19,00,00,00,00,00,00
239592100,00000733,false,1,8,34,35,34,36,10,B0,A1,36
239592400,00000734,false,1,8,03,E8,03,E8,64,64,38,38
239592600,00000735,false,1,8,35,00,35,00,10,B0,A1,38
239593800,00000373,false,1,8,29,29,7F,BC,07,D8,80,12
239593500,00000210,false,0,8,00,00,00,00,40,07,D0,FF
239593700,00000200,false,0,8,1E,03,00,00,80,00,80,00
239593900,00000208,false,0,8,00,20,30,5C,00,00,40,00
239594200,00000214,false,0,8,00,00,00,00,00,00,03,00
239594400,00000133,false,0,8,6E,E0,03,00,40,00,00,00
239594700,00000236,false,0,8,10,13,10,00,60,00,00,D3
239594300,00000288,false,1,8,27,10,4E,20,0C,00,01,10
239594600,0000075A,false,1,8,03,E8,03,E8,64,64,38,39
239594800,0000075B,false,1,8,35,00,35,00,10,B2,A1,39
239594900,000002F1,false,0,8,00,80,1A,5B,00,68,27,00
239595200,00000308,false,0,8,00,00,00,46,01,66,CA,00
239595400,00000520,false,0,8,00,00,00,00,00,00,00,00
239595600,00000312,false,0,8,66,EE,06,EE,08,EE,07,21
239595900,00000143,false,0,8,00,00,00,1C,08,7D,11,17
239596100,00000608,false,0,8,35,3E,00,00,00,00,00,00
239596400,00000418,false,0,8,50,FF,FF,00,00,00,00,01
239595500,00000362,false,1,8,00,00,00,00,00,00,00,00
239595800,00000287,false,1,8,27,10,27,10,27,10,00,02
239596800,0000038A,false,1,8,36,35,00,00,04,00,00,00
239598300,00000285,false,1,8,00,00,03,0A,7C,00,08,10
239598200,00000145,false,0,8,4E,20,6F,FF,8F,FF,0F,FF
239598500,00000346,false,0,8,27,10,29,44,48,00,00,64
239600700,00000359,false,0,8,30,03,7F,80,C0,00,2E,00
239601000,0000035A,false,0,8,00,80,80,80,80,00,0C,00
239601200,000002E1,false,0,8,00,00,00,9F,FF,00,00,00
239600800,00000370,false,1,8,05,BE,00,00,00,40,00,00
239601400,00000289,false,1,8,27,10,4E,20,0C,01,11,10
239601600,0000029A,false,1,8,02,38,36,37,FF,FF,FF,FF
239601800,0000028B,false,1,8,27,10,4E,20,0C,00,01,10
239601500,0000030C,false,0,8,00,00,00,00,00,00,00,00
239603200,00000215,false,0,8,00,00,00,00,00,00,07,00
239603700,00000373,false,1,8,BA,B9,7F,BC,0C,5B,80,12
239604400,00000288,false,1,8,27,10,4E,20,0C,00,01,10
239603500,00000229,false,0,8,00,67,D0,3F,FF,14,00,00
239603700,00000236,false,0,8,10,13,10,00,70,00,00,CB
239604000,00000300,false,0,8,00,00,FF,FF,9F,FF,FF,FF
239604200,00000328,false,0,8,00,00,FF,00,30,00,00,28
239604400,00000133,false,0,8,6E,E0,03,00,40,00,00,00
239604700,00000330,false,0,8,19,00,00,00,FF,FF,3F,FF
239604900,00000308,false,0,8,00,00,00,46,01,66,CA,00
239605200,00000312,false,0,8,66,EE,06,EE,08,EE,07,21
239605600,000007BC,false,0,8,11,00,00,00,00,00,62,00
239605400,00000362,false,1,8,00,00,00,00,00,00,00,00
239605700,00000287,false,1,8,27,10,27,10,27,10,00,02
239605800,00000143,false,0,8,00,00,00,04,08,7D,11,17
239606000,00000315,false,0,8,2D,02,00,00,00,00,71,01
239607600,00000185,false,0,8,08,00,0A,00,00,00,00,00
239606700,00000377,false,1,8,04,D8,00,0A,36,36,35,20
239607900,00000185,false,1,8,08,00,0A,00,00,00,00,00
239608300,00000285,false,1,8,00,00,03,0A,7C,00,08,10
239608200,00000145,false,0,8,4E,20,AF,FF,8F,FF,0F,FF
239608500,0000022D,false,0,8,00,00,47,FF,00,00,00,00
239608700,00000374,false,1,8,0A,82,5B,00,3D,3C,00,30
239610700,0000035A,false,0,8,00,80,80,80,80,00,00,00
239611000,00000425,false,0,8,00,21,0A,10,00,00,00,00
239611300,00000289,false,1,8,27,10,4E,20,0C,01,11,10
239611600,00000566,false,1,8,00,8A,08,00,00,00,00,80
239611800,0000028B,false,1,8,27,10,4E,20,0C,00,01,10
239612300,0000022A,false,0,8,00,18,84,00,04,00,04,00
239612100,00000732,false,1,8,03,E8,03,E8,64,64,05,39
239612300,0000056A,false,1,8,00,8A,08,00,00,00,00,80
239612600,00000734,false,1,8,03,E8,03,E8,64,64,38,38
239613200,00000210,false,0,8,00,00,00,00,40,07,D0,FF
239613400,0000032F,false,0,8,13,1A,00,00,00,00,00,00
239613700,00000200,false,0,8,1E,03,00,00,C0,00,C0,00
239613900,00000208,false,0,8,00,20,30,5C,00,00,40,00
239614200,00000214,false,0,8,00,00,00,00,00,00,03,00
239614400,00000133,false,0,8,6E,E0,00,00,40,00,00,00
239613700,00000373,false,1,8,BA,B9,7F,BC,0C,5B,80,12
239614500,00000288,false,1,8,27,10,4E,20,0C,00,01,10
239614700,00000564,false,1,8,00,8A,A8,00,00,00,00,80
239615000,0000075A,false,1,8,03,E8,03,E8,64,64,38,39
239615300,00000362,false,1,8,00,00,00,00,00,00,00,00
239614700,00000236,false,0,8,10,13,10,00,80,00,00,43
239614900,000002F1,false,0,8,00,80,1A,52,00,A7,FF,00
239615100,00000308,false,0,8,00,00,00,06,00,06,CA,00
239615400,0000034A,false,0,8,51,00,01,00,00,00,00,00
239615600,00000312,false,0,8,06,EE,06,EE,08,EE,07,21
239615900,00000143,false,0,8,00,00,00,04,08,7D,11,17
239616100,00000415,false,0,7,00,00,00,00,00,00,C8
239616300,00000418,false,0,8,50,FF,FF,00,00,00,00,01
239616600,00000424,false,0,8,05,7B,00,10,00,03,00,00
239615700,00000287,false,1,8,27,10,27,10,27,10,00,02
239616700,00000389,false,1,8,00,00,00,35,35,00,00,00
239617000,00000424,false,1,8,05,7B,00,10,00,03,00,00
239618200,00000145,false,0,8,4E,20,AF,FF,8F,FF,0F,FF
239618400,00000346,false,0,8,27,10,29,44,48,00,00,64
239618700,00000366,false,0,8,01,00,00,00,00,00,00,00
239618200,00000285,false,1,8,00,00,03,0A,7C,00,08,10
239618700,00000375,false,1,8,0F,0F,00,01,F4,00,00,00
239618900,00000673,false,0,8,00,00,00,00,00,00,00,00
239620700,00000359,false,0,8,30,00,7F,80,00,00,2E,00
239620900,0000035A,false,0,8,00,80,80,80,80,00,00,00
239620700,00000370,false,1,8,05,BE,00,00,00,40,00,00
239621300,00000289,false,1,8,27,10,4E,20,0C,01,11,10
239621600,00000567,false,1,8,80,00,00,00,00,00,00,00
239621900,0000028B,false,1,8,27,10,4E,20,0C,00,01,10
239622100,0000056B,false,1,8,80,00,00,00,00,00,00,00
239621500,000002E1,false,0,8,00,00,80,1F,FF,00,00,00
239623200,00000215,false,0,8,00,00,00,00,00,00,07,00
239623500,00000229,false,0,8,00,07,D0,3F,FF,0C,00,00
239623700,00000236,false,0,8,10,13,10,00,90,00,00,5B
239623700,00000373,false,1,8,BA,B9,7F,BC,0C,5B,80,12
239624400,00000288,false,1,8,27,10,4E,20,0C,00,01,10
239624700,00000565,false,1,8,80,00,00,00,00,00,00,00
239623900,00000300,false,0,8,00,80,FF,FF,1F,FF,FF,FF
239624200,00000328,false,0,8,00,00,FF,00,40,00,00,60
239624400,00000133,false,0,8,6E,E0,00,00,40,00,00,00
239624700,00000330,false,0,8,01,00,00,00,FF,FF,3F,FF
239624900,00000308,false,0,8,00,00,00,06,00,06,CA,00
239625200,00000312,false,0,8,06,EE,06,EE,08,EE,07,21
239625500,000007BC,false,0,8,12,00,00,00,00,00,00,00
239625700,00000143,false,0,8,00,00,00,1C,08,7D,11,17
239626000,00000315,false,0,8,71,02,00,00,00,00,71,01
239625400,00000362,false,1,8,00,00,00,00,00,00,00,00
239625700,00000287,false,1,8,27,10,27,10,27,10,00,02
239626200,000005A1,false,1,8,00,00,00,20,00,00,00,22
239626700,00000377,false,1,8,04,D8,00,0A,36,36,35,20
239627600,00000672,false,0,8,00,00,00,00,00,00,00,00
239628200,00000145,false,0,8,4E,20,6F,FF,8F,FF,0F,FF
239628200,00000285,false,1,8,00,00,03,0A,7C,00,08,10
239628400,0000022D,false,0,8,00,18,87,FF,00,00,00,00
239630700,0000035A,false,0,8,00,80,80,80,80,00,0C,00
239631100,0000039A,false,0,8,67,F8,00,00,00,00,00,00
239632200,0000022A,false,0,8,00,00,44,00,04,00,04,00
239631300,00000289,false,1,8,27,10,4E,20,0C,01,11,10
239631600,0000056D,false,1,8,00,00,00,00,00,00,00,80
239631800,0000028B,false,1,8,27,10,4E,20,0C,00,01,10
239632100,00000732,false,1,8,03,E8,03,E8,64,64,05,39
239632300,0000056F,false,1,8,00,00,00,00,00,00,00,80
239632600,00000734,false,1,8,03,E8,03,E8,64,64,38,38
239633000,00000347,false,0,8,09,00,00,16,12,00,02,3A
239633200,00000210,false,0,8,00,00,00,80,C0,07,D0,FF
239633500,00000200,false,0,8,1E,03,00,00,00,00,00,00
239633700,00000208,false,0,8,00,20,00,5C,00,00,00,00
239634000,00000214,false,0,8,00,00,00,00,00,00,00,00
239634200,00000236,false,0,8,10,13,10,00,A0,00,00,73
239633700,00000373,false,1,8,BA,B9,7F,BC,0C,5B,80,12
239634400,00000288,false,1,8,27,10,4E,20,0C,00,01,10
239634700,0000056C,false,1,8,00,00,00,00,00,00,00,80
239635000,0000075A,false,1,8,03,E8,03,E8,64,64,38,39
239635300,00000362,false,1,8,00,00,00,00,00,00,00,00
239635700,00000287,false,1,8,27,10,27,10,27,10,00,02
239634500,00000133,false,0,8,6E,E0,03,00,40,00,00,00
239634700,000002F1,false,0,8,00,80,1A,5D,00,E8,31,00
239634900,00000134,false,0,8,20,00,00,00,00,00,51,08
239635200,0000032F,false,0,8,4E,1B,00,00,00,00,00,00
239635400,00000308,false,0,8,00,00,00,46,01,66,CA,00
239635600,00000143,false,0,8,00,00,00,1C,08,7D,11,17
239635900,00000312,false,0,8,66,EE,06,EE,08,EE,07,21
239636100,00000418,false,0,8,50,FF,FF,00,00,00,00,01
239636700,00000569,false,1,8,0A,80,00,00,00,00,00,00
239637500,00000572,false,0,8,00,00,00,00,00,00,00,00
239638100,00000145,false,0,8,4E,20,6F,FF,8F,FF,0F,FF
239638400,00000346,false,0,8,27,10,29,44,48,00,00,64
239638200,00000285,false,1,8,00,00,03,0A,7C,00,08,10
239638600,0000022E,false,0,8,1E,00,00,00,00,00,00,00
239640600,00000359,false,0,8,30,03,7F,80,C0,00,2E,00
239640900,0000035A,false,0,8,00,80,80,80,80,00,0C,00
239641100,000002E1,false,0,8,00,00,80,1F,FF,00,00,00
239640600,00000370,false,1,8,05,BE,00,00,00,40,00,00
239641300,00000289,false,1,8,27,10,4E,20,0C,01,11,10
239641800,0000028B,false,1,8,27,10,4E,20,0C,00,01,10
239643200,00000371,false,1,8,00,00,00,00,00,00,00,00
239643700,00000373,false,1,8,BA,B9,7F,BC,0C,5B,80,12
239643100,00000215,false,0,8,00,00,00,00,00,00,04,00
239643400,00000520,false,0,8,00,00,00,00,00,00,00,00
239643600,00000207,false,0,8,08,00,00,00,08,10,00,00
239643900,00000229,false,0,8,00,07,D0,3F,FF,0C,00,00
239644100,00000236,false,0,8,10,13,10,00,B0,00,00,6B
239644300,00000133,false,0,8,6E,E0,03,00,40,00,00,00
239644000,00000207,false,1,8,08,00,00,00,08,10,00,00
239644400,00000288,false,1,8,27,10,4E,20,0C,00,01,10
239645400,00000362,false,1,8,00,00,00,00,00,00,00,00
239645700,00000287,false,1,8,27,10,27,10,27,10,00,02
239644600,00000300,false,0,8,00,80,FF,FF,1F,FF,FF,FF
239644800,00000308,false,0,8,00,00,00,46,01,66,CA,00
239645100,00000328,false,0,8,00,00,FF,00,50,00,00,78
239645300,00000312,false,0,8,66,EE,06,EE,08,EE,07,21
239645600,00000330,false,0,8,01,00,00,00,FF,FF,3F,FF
239645800,00000143,false,0,8,00,00,00,04,08,7D,11,17
239646000,00000315,false,0,8,35,02,00,00,00,00,71,01
239646300,00000387,false,0,8,00,00,7F,BC,0C,5B,3D,3C
239646500,000007BC,false,0,8,13,00,00,00,00,00,00,00
239646700,00000377,false,1,8,04,D8,00,0A,36,36,35,20
239648100,00000145,false,0,8,4E,20,AF,FF,8F,FF,0F,FF
239648400,00000353,false,0,8,00,00,00,00,00,00,00,00
239648600,0000022D,false,0,8,00,18,87,FF,00,00,00,00
239648100,00000285,false,1,8,00,00,03,0A,7C,00,08,10
239650600,00000286,false,1,8,00,00,00,39,00,00,0A,00
239650600,00000345,false,0,8,00,00,FF,FF,00,01,00,E0
239650900,0000035A,false,0,8,00,80,80,80,80,00,00,00
239651100,0000030C,false,0,8,00,00,00,00,00,00,00,00
239651400,00000425,false,0,8,00,21,0A,10,00,00,00,00
239651300,00000289,false,1,8,27,10,4E,20,0C,01,11,10
239651600,00000299,false,1,8,34,36,38,3E,35,00,00,00
239651800,0000028B,false,1,8,27,10,4E,20,0C,00,01,10
239652100,00000732,false,1,8,03,E8,03,E8,64,64,05,39
239652300,0000029B,false,1,8,35,38,3C,39,39,0A,00,34
239652600,00000734,false,1,8,03,E8,03,E8,64,64,38,38
239652200,0000022A,false,0,8,00,00,44,00,04,00,04,00
239652500,0000022B,false,0,8,04,FF,00,00,00,00,00,00
239653100,00000210,false,0,8,00,00,00,80,C0,07,D0,FF
239653600,00000154,false,1,8,65,FF,61,65,0A,07,6C,78
239653800,00000373,false,1,8,BA,B9,7F,BC,0C,5B,80,12
239654500,00000288,false,1,8,27,10,4E,20,0C,00,01,10
239653300,00000154,false,0,8,65,FF,61,65,0A,07,6C,78
239653600,00000200,false,0,8,1E,03,00,00,40,00,40,00
239653800,00000208,false,0,8,00,20,00,5C,00,00,00,00
239654100,00000214,false,0,8,00,00,00,00,00,00,00,00
239654300,00000133,false,0,8,6E,E0,00,00,40,00,00,00
239654600,00000236,false,0,8,10,13,10,00,C0,00,00,23
239654800,000002F1,false,0,8,00,80,1A,5E,00,68,35,00
239655000,00000308,false,0,8,00,00,00,06,00,06,CA,00
239655300,0000032F,false,0,8,C0,1C,00,00,00,00,00,00
239655500,00000312,false,0,8,06,EE,06,EE,08,EE,07,21
239654800,00000298,false,1,8,35,39,3C,39,39,00,00,34
239655000,0000075A,false,1,8,03,E8,03,E8,64,64,38,39
239655200,00000362,false,1,8,00,00,00,00,00,00,00,00
239655600,00000287,false,1,8,27,10,27,10,27,10,00,02
239656300,00000424,false,1,8,05,7B,00,10,00,03,00,00
239655700,0000038C,false,0,8,24,01,08,30,00,00,00,00
239656000,00000424,false,0,8,05,7B,00,10,00,03,00,00
239656200,00000143,false,0,8,00,00,00,04,08,7D,11,17
239656500,00000418,false,0,8,50,FF,FF,00,00,00,00,01
239656700,00000568,false,1,8,00,02,80,00,00,00,08,80
239658100,00000285,false,1,8,00,00,03,0A,7C,00,08,10
239658100,00000145,false,0,8,4E,20,AF,FF,8F,FF,0F,FF
239658300,00000346,false,0,8,27,10,29,44,48,00,00,64
239658900,00000222,false,0,8,00,00,00,00,04,00,00,00
239660500,00000359,false,0,8,30,03,7F,80,C0,00,2E,00
239660800,0000035A,false,0,8,00,80,80,80,80,00,00,00
239661000,000002E1,false,0,8,00,00,00,9F,FF,00,00,00
239660600,00000370,false,1,8,05,BE,00,00,00,40,00,00
239661300,00000289,false,1,8,27,10,4E,20,0C,01,11,10
239661500,00000566,false,1,8,00,8A,08,00,00,00,00,80
239661800,0000028B,false,1,8,27,10,4E,20,0C,00,01,10
239662000,0000056A,false,1,8,00,8A,08,00,00,00,00,80
239663700,00000373,false,1,8,BA,B9,7F,BC,0C,5B,80,12
239662900,00000101,false,0,1,44
239663200,00000215,false,0,8,00,00,00,00,00,00,04,00
239663400,00000229,false,0,8,00,67,D0,3F,FF,14,00,00
239663700,00000236,false,0,8,10,13,10,00,D0,00,00,3B
239663900,00000300,false,0,8,00,00,FF,FF,9F,FF,FF,FF
239664200,00000328,false,0,8,00,00,FF,00,60,00,00,50
239664400,00000133,false,0,8,6E,E0,00,00,40,00,00,00
239664700,00000330,false,0,8,19,00,00,00,FF,FF,3F,FF
239664900,00000308,false,0,8,00,00,00,06,00,06,CA,00
239664500,00000288,false,1,8,27,10,4E,20,0C,00,01,10
239664800,00000564,false,1,8,00,8A,A8,00,00,00,00,80
239665300,00000362,false,1,8,01,00,10,04,00,00,00,00
239665100,00000312,false,0,8,06,EE,06,EE,08,EE,07,21
239665400,000007BC,false,0,8,14,00,00,00,00,00,00,00
239665600,00000143,false,0,8,00,00,00,1C,08,7D,11,17
239665900,00000315,false,0,8,39,02,00,00,00,00,71,01
239666100,00000390,false,0,8,08,00,FF,FF,FE,00,00,00
239665600,00000287,false,1,8,27,10,27,10,27,10,00,02
239666700,00000377,false,1,8,04,D8,00,0A,36,36,35,20
239668100,00000285,false,1,8,00,00,03,0A,7C,00,08,10
239668000,00000145,false,0,8,4E,20,6F,FF,8F,FF,0F,FF
239668300,00000348,false,0,8,7F,FE,FF,FE,00,00,FF,FE
239668600,0000022D,false,0,8,00,00,47,FF,00,00,00,00
239670500,0000032D,false,0,8,00,4E,20,4E,20,33,19,00
239670800,0000035A,false,0,8,00,80,80,80,80,00,0C,00
239672100,0000022A,false,0,8,00,18,84,00,04,00,04,00
239671200,00000289,false,1,8,27,10,4E,20,0C,01,11,10
239671500,00000567,false,1,8,80,00,00,00,00,00,00,00
239671800,0000028B,false,1,8,27,10,4E,20,0C,00,01,10
239672000,00000732,false,1,8,03,E8,03,E8,64,64,05,39
239672200,0000056B,false,1,8,80,00,00,00,00,00,00,00
239672500,00000734,false,1,8,03,E8,03,E8,64,64,38,38
239673700,00000373,false,1,8,BA,B9,7F,BC,0C,5B,80,12
239674400,00000288,false,1,8,27,10,4E,20,0C,00,01,10
239673000,00000210,false,0,8,00,00,00,00,40,07,D0,FF
239673300,000004A0,false,0,8,FF,FF,33,33,FF,FF,FF,04
239673500,00000200,false,0,8,1E,03,00,00,80,00,80,00
239673800,00000208,false,0,8,00,20,30,5C,00,00,40,00
239674000,00000214,false,0,8,00,00,00,00,00,00,03,00
239674300,00000133,false,0,8,6E,E0,03,00,40,00,00,00
239674500,00000236,false,0,8,10,13,10,00,E0,00,00,13
239674700,000002F1,false,0,8,00,80,1A,69,00,28,66,00
239675000,00000308,false,0,8,00,00,00,46,01,66,CA,00
239675200,0000032F,false,0,8,9D,1D,00,00,00,00,00,00
239675500,00000312,false,0,8,66,EE,06,EE,08,EE,07,21
239674700,00000565,false,1,8,80,00,00,00,00,00,00,00
239674900,0000075A,false,1,8,03,E8,03,E8,64,64,38,39
239675300,00000362,false,1,8,01,00,10,04,00,00,00,00
239675500,00000287,false,1,8,27,10,27,10,27,10,00,02
239676200,000005A1,false,1,8,00,00,00,20,00,00,00,22
239676400,000006FA,false,1,8,01,32,57,4B,5A,30,30,30
239676700,00000563,false,1,8,00,00,00,02,02,00,00,00
239675700,00000143,false,0,8,00,00,00,1C,08,7D,11,17
239675900,000006FA,false,0,8,01,32,57,4B,5A,30,30,30
239676200,00000418,false,0,8,50,FF,FF,00,00,00,00,01
239677700,00000188,false,0,8,00,00,FF,FF,00,00,00,00
239678000,00000145,false,0,8,4E,20,6F,FF,8F,FF,0F,FF
239678300,00000346,false,0,8,27,10,29,44,48,00,00,64
239677900,00000188,false,1,8,00,00,FF,FF,00,00,00,00
239678200,00000285,false,1,8,00,00,03,0A,7C,00,08,10
239680500,00000359,false,0,8,30,03,7F,80,C0,00,2E,00
239680700,0000035A,false,0,8,00,80,80,80,80,00,0C,00
239681000,000002E1,false,0,8,00,00,00,9F,FF,00,00,00
239680500,00000370,false,1,8,05,BE,00,00,00,40,00,00
239681300,00000289,false,1,8,27,10,4E,20,0C,01,11,10
239681500,0000056D,false,1,8,00,00,00,00,00,00,00,80
239681200,0000039A,false,0,8,67,F8,00,00,00,00,00,00
239683000,00000144,false,0,8,04,00,00,00,00,00,00,00
239683300,00000215,false,0,8,00,00,00,00,00,00,07,00
239681800,0000028B,false,1,8,27,10,4E,20,0C,00,01,10
239682000,0000056F,false,1,8,00,00,00,00,00,00,00,80
239683600,00000373,false,1,8,BA,B9,7F,BC,0C,5B,80,12
239683500,00000229,false,0,8,08,67,D0,3F,FF,14,00,00
239683700,00000236,false,0,8,10,13,10,00,F0,00,00,0B
239684000,00000300,false,0,8,00,00,FF,FF,9F,FF,FF,FF
239684200,00000133,false,0,8,6E,E0,03,00,40,00,00,00
239684500,00000328,false,0,8,00,00,FF,00,70,00,00,48
239684700,00000308,false,0,8,00,00,00,46,01,66,CA,00
239684400,00000288,false,1,8,27,10,4E,20,0C,00,01,10
239684600,00000388,false,1,8,01,00,00,00,00,00,00,02
239684900,0000056C,false,1,8,00,00,00,00,00,00,00,80
239685200,00000362,false,1,8,01,00,10,04,00,00,00,00
239685500,00000287,false,1,8,27,10,27,10,27,10,00,02
239685000,00000330,false,0,8,19,00,00,00,FF,FF,3F,FF
239685200,00000312,false,0,8,66,EE,06,EE,08,EE,07,21
239685400,00000388,false,0,8,01,00,00,00,00,00,00,02
239685700,00000315,false,0,8,7D,02,00,00,00,00,71,01
239685900,00000143,false,0,8,00,00,00,04,08,7D,11,17
239686200,000007BC,false,0,8,15,00,00,00,00,00,00,00
239686600,00000377,false,1,8,04,D8,00,0A,36,36,35,20
239688000,00000285,false,1,8,00,00,03,0A,7C,00,08,10
239688000,00000145,false,0,8,4E,20,AF,FF,8F,FF,0F,FF
239688700,0000022D,false,0,8,00,00,47,FF,00,00,00,00
239690500,0000035A,false,0,8,00,80,80,80,80,00,00,00
239691000,00000425,false,0,8,00,21,0A,10,00,00,00,00
239691200,00000289,false,1,8,27,10,4E,20,0C,01,11,10
239691500,00000732,false,1,8,03,E8,03,E8,64,64,05,39
239691700,0000028B,false,1,8,27,10,4E,20,0C,00,01,10
239692000,00000733,false,1,8,34,35,34,36,10,B0,A1,36
239692200,00000734,false,1,8,03,E8,03,E8,64,64,38,38
239692400,00000735,false,1,8,35,00,35,00,10,B0,A1,38
239692100,0000022A,false,0,8,00,18,84,00,04,00,04,00
239693000,00000210,false,0,8,00,00,00,00,40,07,D0,FF
239693200,00000520,false,0,8,00,00,00,00,00,00,00,00
239693600,00000373,false,1,8,BA,B9,7F,BC,0C,5B,80,12
239693500,00000200,false,0,8,1E,03,00,00,C0,00,C0,00
239693700,00000208,false,0,8,00,20,30,5C,00,00,40,00
239694000,00000214,false,0,8,00,00,00,00,00,00,03,00
239694200,00000133,false,0,8,6E,E0,00,00,40,00,00,00
239694500,00000236,false,0,8,10,13,10,00,00,00,00,83
239694700,000002F1,false,0,8,00,80,1A,6F,00,E8,81,00
239694900,00000308,false,0,8,00,00,00,06,00,06,CA,00
239694400,00000288,false,1,8,27,10,4E,20,0C,00,01,10
239694600,0000075A,false,1,8,03,E8,03,E8,64,64,38,39
239694900,0000075B,false,1,8,35,00,35,00,10,B2,A1,39
239695200,00000362,false,1,8,01,00,10,04,00,00,00,00
239695500,00000287,false,1,8,27,10,27,10,27,10,00,02
239696200,00000424,false,1,8,05,79,00,10,00,03,00,00
239695200,0000032F,false,0,8,7A,1E,00,00,00,00,00,00
239695400,00000312,false,0,8,06,EE,06,EE,08,EE,07,21
239695700,00000143,false,0,8,00,00,00,04,08,7D,11,17
239695900,00000424,false,0,8,05,79,00,10,00,03,00,00
239696100,00000418,false,0,8,50,FF,FF,00,00,00,00,01
239696400,00000608,false,0,8,35,3E,00,00,00,00,00,00
239696600,0000038A,false,1,8,36,35,00,00,04,00,00,00
239698000,00000285,false,1,8,00,00,03,0A,7B,00,08,10
239698000,00000145,false,0,8,4E,20,AF,FF,8F,FF,0F,FF
239698200,00000346,false,0,8,27,10,29,44,48,00,00,64
239700500,00000370,false,1,8,05,BE,00,00,00,40,00,00
239701300,00000289,false,1,8,27,10,4E,20,0C,01,11,10
239700100,00000111,false,0,6,31,7B,14,00,00,00
239700400,00000359,false,0,8,30,03,7F,80,C0,00,2E,00
239700700,0000035A,false,0,8,00,80,80,80,80,00,00,00
239700900,000002E1,false,0,8,00,00,80,1F,FF,00,00,00
239701400,0000030C,false,0,8,00,00,00,00,00,00,00,00
239701500,0000028B,false,1,8,27,10,4E,20,0C,00,01,10
239701700,0000029A,false,1,8,00,4A,4D,46,58,44,47,47
239702900,00000215,false,0,8,00,00,00,00,00,00,07,00
239703400,00000229,false,0,8,08,07,D0,3F,FF,0C,00,00
239703600,00000236,false,0,8,10,13,10,00,10,00,00,9B
239703900,00000300,false,0,8,00,80,FF,FF,1F,FF,FF,FF
239704100,00000133,false,0,8,6E,E0,00,00,40,00,00,00
239704400,00000328,false,0,8,00,00,FF,00,80,00,00,C0
239703600,00000373,false,1,8,BA,B9,7F,BC,0C,5B,80,16
239704200,00000288,false,1,8,27,10,4E,20,0C,00,01,10
239705200,00000362,false,1,8,01,00,10,04,00,00,00,00
239704600,00000308,false,0,8,00,00,00,06,00,06,CA,00
239704800,00000330,false,0,8,01,00,00,00,FF,FF,3F,FF
239705100,00000312,false,0,8,06,EE,06,EE,08,EE,07,21
239705300,000007BC,false,0,8,16,00,00,00,00,00,00,00
239705600,00000143,false,0,8,00,00,00,1C,08,7D,11,17
239705800,00000315,false,0,8,41,02,00,00,00,00,71,01
239706100,000006F1,false,0,8,F5,0C,02,0B,5C,04,10,53
239705500,00000287,false,1,8,27,10,27,10,27,10,00,02
239706600,00000377,false,1,8,04,D2,00,0A,36,36,35,20
239707800,00000185,false,1,8,08,00,0A,00,00,00,00,00
239708000,00000285,false,1,8,00,00,03,0A,7B,00,08,10
239707500,00000185,false,0,8,08,00,0A,00,00,00,00,00
239707900,00000145,false,0,8,4E,20,6F,FF,8F,FF,0F,FF
239708900,0000022D,false,0,8,00,18,87,FF,00,00,00,00
239708600,00000374,false,1,8,81,82,47,EA,3D,3C,3F,30
239710400,0000035A,false,0,8,00,80,80,80,80,00,0C,00
239710700,000006F3,false,0,8,99,01,68,0A,02,11,06,33
239712000,0000022A,false,0,8,00,00,44,00,04,00,04,00
239711200,00000289,false,1,8,27,10,4E,20,0C,01,11,10
239711500,0000028B,false,1,8,27,10,4E,20,0C,00,01,10
239711800,00000566,false,1,8,00,8A,08,00,00,00,00,80
239712000,0000056A,false,1,8,00,8A,08,00,00,00,00,80
239712200,00000732,false,1,8,03,E8,03,E8,64,64,05,39
239712500,00000734,false,1,8,03,E8,03,E8,64,64,38,38
239712900,00000210,false,0,8,00,00,00,80,C0,07,D0,FF
239713300,00000200,false,0,8,1E,03,00,00,00,00,00,00
239713600,00000208,false,0,8,00,20,00,5C,00,00,00,00
239713600,00000373,false,1,8,BA,B9,7F,BC,0C,5B,80,16
239714200,00000288,false,1,8,27,10,4E,20,0C,00,01,10
239714500,00000564,false,1,8,00,8A,A8,00,00,00,00,80
239714700,0000075A,false,1,8,03,E8,03,E8,64,64,38,39
239715200,00000362,false,1,8,01,00,10,04,00,00,00,00
239715500,00000287,false,1,8,27,10,27,10,27,10,00,02
239713900,00000214,false,0,8,00,00,00,00,00,00,00,00
239714100,00000133,false,0,8,6E,E0,03,00,40,00,00,00
239714300,00000236,false,0,8,10,13,10,00,20,00,00,B3
239714600,000002F1,false,0,8,00,80,1A,72,00,E8,8E,00
239714800,00000308,false,0,8,00,00,00,46,01,66,CA,00
239715100,0000032F,false,0,8,27,1F,00,00,00,00,00,00
239715300,00000312,false,0,8,66,EE,06,EE,08,EE,07,21
239715500,00000143,false,0,8,00,00,00,1C,08,7D,11,17
239715800,0000034A,false,0,8,51,00,01,00,00,00,00,00
239716000,00000415,false,0,7,00,00,00,00,00,00,C8
239716200,00000418,false,0,8,50,FF,FF,00,00,00,00,01
239716600,00000389,false,1,8,00,00,00,35,35,00,00,00
239717900,00000285,false,1,8,00,00,03,0A,7B,00,08,10
239718600,00000375,false,1,8,08,08,00,19,32,00,00,00
239717900,00000145,false,0,8,4E,20,6F,FF,8F,FF,0F,FF
239718100,00000346,false,0,8,27,10,29,44,48,00,00,64
239719000,00000366,false,0,8,01,00,00,00,00,00,00,00
239720400,00000370,false,1,8,05,BE,00,00,00,40,00,00
239721200,00000289,false,1,8,27,10,4E,20,0C,01,11,10
239720400,00000359,false,0,8,30,03,7F,80,C0,00,2E,00
239720700,0000035A,false,0,8,00,80,80,80,80,00,0C,00
239720900,000002E1,false,0,8,00,00,80,1F,FF,00,00,00
239721500,00000567,false,1,8,80,00,00,00,00,00,00,00
239721700,0000028B,false,1,8,27,10,4E,20,0C,00,01,10
239722000,0000056B,false,1,8,80,00,00,00,00,00,00,00
239722900,00000215,false,0,8,00,00,00,00,00,00,04,00
239723400,00000229,false,0,8,08,07,D0,3F,FF,0C,00,00
239723600,00000236,false,0,8,10,13,10,00,30,00,00,AB
239723800,00000300,false,0,8,00,80,FF,FF,1F,FF,FF,FF
239724100,00000133,false,0,8,6E,E0,03,00,40,00,00,00
239724300,00000328,false,0,8,00,00,FF,00,90,00,00,D8
239723600,00000373,false,1,8,BA,B9,7F,BC,0C,5B,80,16
239724400,00000288,false,1,8,27,10,4E,20,0C,00,01,10
239724600,00000565,false,1,8,80,00,00,00,00,00,00,00
239725200,00000362,false,1,8,01,00,10,04,00,00,00,00
239725400,00000287,false,1,8,27,10,27,10,27,10,00,02
239724600,00000308,false,0,8,00,00,00,46,01,66,CA,00
239724800,00000330,false,0,8,01,00,00,00,FF,FF,3F,FF
239725100,00000312,false,0,8,66,EE,06,EE,08,EE,07,21
239725400,000007BC,false,0,8,17,00,00,00,00,00,00,00
239725600,00000143,false,0,8,00,00,00,04,08,7D,11,17
239725800,000006F4,false,0,8,69,29,20,01,1D,00,00,00
239726100,00000315,false,0,8,05,02,00,00,00,00,71,01
239726100,000005A1,false,1,8,00,00,00,20,00,00,00,22
239726600,00000377,false,1,8,04,CA,00,0A,36,36,35,20
239727900,00000285,false,1,8,00,00,03,0A,7B,00,08,10
239727900,00000145,false,0,8,4E,20,AF,FF,8F,FF,0F,FF
239728900,0000022D,false,0,8,00,18,87,FF,00,00,00,00
239730400,0000035A,false,0,8,00,80,80,80,80,00,00,00
239730900,00000425,false,0,8,00,21,0A,10,00,00,00,00
239731200,0000039A,false,0,8,67,F8,00,00,00,00,00,00
239731200,00000289,false,1,8,27,10,4E,20,0C,01,11,10
239731400,0000056D,false,1,8,00,00,00,00,00,00,00,80
239731700,0000028B,false,1,8,27,10,4E,20,0C,00,01,10
239731900,00000732,false,1,8,03,E8,03,E8,64,64,05,39
239732100,0000056F,false,1,8,00,00,00,00,00,00,00,80
239732400,00000734,false,1,8,03,E8,03,E8,64,64,38,38
239732200,0000022A,false,0,8,00,00,44,00,04,00,04,00
239732900,00000210,false,0,8,00,00,00,80,C0,07,D0,FF
239733100,00000347,false,0,8,09,00,00,16,12,00,02,3A
239733300,00000200,false,0,8,1E,03,00,00,40,00,40,00
239733600,00000208,false,0,8,00,20,00,5C,00,00,00,00
239733800,00000214,false,0,8,00,00,00,00,00,00,00,00
239734100,00000133,false,0,8,6E,E0,00,00,40,00,00,00
239733600,00000373,false,1,8,BA,B9,7F,BC,0C,5B,80,16
239734300,00000288,false,1,8,27,10,4E,20,0C,00,01,10
239734600,0000056C,false,1,8,00,00,00,00,00,00,00,80
239734800,0000075A,false,1,8,03,E8,03,E8,64,64,38,39
239735100,00000362,false,1,8,01,00,10,04,00,00,00,00
239735400,00000287,false,1,8,27,10,27,10,27,10,00,02
239734300,00000236,false,0,8,10,13,10,00,40,00,00,E3
239734600,00000134,false,0,8,20,00,00,00,00,00,51,08
239734800,000002F1,false,0,8,00,80,1A,73,00,68,93,00
239735000,00000308,false,0,8,00,00,00,06,00,06,CA,00
239735300,0000032F,false,0,8,7B,10,00,00,00,00,00,00
239735500,00000143,false,0,8,00,00,00,04,08,7D,11,17
239735800,00000312,false,0,8,06,EE,06,EE,08,EE,07,21
239736000,00000418,false,0,8,50,FF,FF,00,00,00,00,01
239736200,00000424,false,0,8,05,79,00,10,00,03,00,00
239736500,00000424,false,1,8,05,79,00,10,00,03,00,00
239737900,00000285,false,1,8,00,00,03,0A,7B,00,08,10
239737800,00000145,false,0,8,4E,20,AF,FF,8F,FF,0F,FF
239738100,00000346,false,0,8,27,10,29,44,48,00,00,64
239738900,0000022E,false,0,8,1E,00,00,00,00,00,00,00
239740300,00000370,false,1,8,05,BE,00,00,00,40,00,00
239740300,00000359,false,0,8,00,03,7F,80,C0,00,2E,00
239740600,0000035A,false,0,8,00,80,80,80,80,00,00,00
239740800,000002E1,false,0,8,00,00,00,9F,FF,00,00,00
239741200,00000289,false,1,8,27,10,4E,20,0C,01,11,10
239741500,0000028B,false,1,8,27,10,4E,20,0C,00,01,10
239742900,00000371,false,1,8,00,00,00,00,00,00,00,00
239742800,00000215,false,0,8,00,00,00,00,00,00,04,00
239743100,00000520,false,0,8,00,00,00,00,00,00,00,00
239743300,00000207,false,0,8,08,00,00,00,08,10,00,00
239743600,00000229,false,0,8,08,67,D0,3F,FF,14,00,00
239743800,00000236,false,0,8,10,13,10,00,50,00,00,FB
239744100,00000133,false,0,8,6E,E0,00,00,40,00,00,00
239743600,00000373,false,1,8,BA,B9,7F,BC,0C,5B,80,16
239743800,00000207,false,1,8,08,00,00,00,08,10,00,00
239744300,00000288,false,1,8,27,10,4E,20,0C,00,01,10
239745200,00000362,false,1,8,01,00,10,04,00,00,00,00
239745500,00000287,false,1,8,27,10,27,10,27,10,00,02
239744300,00000300,false,0,8,00,00,FF,FF,9F,FF,FF,FF
239744600,00000308,false,0,8,00,00,00,06,00,06,CA,00
239744800,00000328,false,0,8,00,00,FF,00,A0,00,00,F0
239745000,00000312,false,0,8,06,EE,06,EE,08,EE,07,21
239745300,00000330,false,0,8,19,00,00,00,FF,FF,3F,FF
239745500,00000143,false,0,8,00,00,00,1C,08,7D,11,17
239745800,00000315,false,0,8,09,02,00,00,00,00,71,01
239746000,00000387,false,0,8,00,00,7F,BC,0C,5B,3D,3C
239746200,000007BC,false,0,8,18,FE,10,80,40,00,00,00
239746600,00000377,false,1,8,04,C6,00,0A,36,36,35,20
239747800,00000285,false,1,8,00,00,03,0A,7B,00,08,10
239747800,00000145,false,0,8,4E,20,6F,FF,8F,FF,0F,FF
239748100,00000353,false,0,8,00,00,00,00,00,00,00,00
239749000,0000022D,false,0,8,00,00,47,FF,00,00,00,00
239750300,00000286,false,1,8,00,00,00,39,00,00,0A,00
239750300,00000345,false,0,8,00,00,FF,FF,00,01,00,E0
239750600,0000035A,false,0,8,00,80,80,80,80,00,0C,00
239750900,0000030C,false,0,8,00,00,00,00,00,00,00,00
239752100,0000022A,false,0,8,00,18,84,00,04,00,04,00
239751200,00000289,false,1,8,27,10,4E,20,0C,01,11,10
239751400,00000299,false,1,8,34,36,38,3E,35,00,00,00
239751700,0000028B,false,1,8,27,10,4E,20,0C,00,01,10
239751900,00000732,false,1,8,03,E8,03,E8,64,64,05,39
239752100,0000029B,false,1,8,35,38,3C,39,39,0A,00,34
239752400,00000734,false,1,8,03,E8,03,E8,64,64,38,38
239753300,00000154,false,1,8,66,FF,61,65,0A,07,6C,78
239752300,0000022B,false,0,8,04,FF,00,00,00,00,00,00
239752800,00000210,false,0,8,00,00,00,00,40,07,D0,FF
239753000,00000154,false,0,8,66,FF,61,65,0A,07,6C,78
239753300,00000200,false,0,8,1E,03,00,00,80,00,80,00
239753500,00000208,false,0,8,00,20,30,5C,00,00,40,00
239753800,00000214,false,0,8,00,00,00,00,00,00,03,00
239754000,00000236,false,0,8,10,13,10,00,60,00,00,D3
239754300,00000133,false,0,8,6E,E0,03,00,40,00,00,00
239754500,000002F1,false,0,8,00,80,1A,82,00,68,D6,00
239754700,00000308,false,0,8,00,00,00,46,01,66,CA,00
239753600,00000373,false,1,8,BA,B9,7F,BC,0C,5B,80,16
239754300,00000288,false,1,8,27,10,4E,20,0C,00,01,10
239754600,00000298,false,1,8,35,39,3C,39,39,00,00,34
239754900,0000075A,false,1,8,03,E8,03,E8,64,64,38,39
239755100,00000362,false,1,8,01,00,10,04,00,00,00,00
239755400,00000287,false,1,8,27,10,27,10,27,10,00,02
239755000,0000032F,false,0,8,26,11,00,00,00,00,00,00
239755200,00000312,false,0,8,66,EE,06,EE,08,EE,07,21
239755400,0000038C,false,0,8,24,01,08,30,00,00,00,00
239755700,00000143,false,0,8,00,00,00,1C,08,7D,11,17
239755900,00000418,false,0,8,50,FF,FF,00,00,00,00,01
239757800,00000145,false,0,8,4E,20,6F,FF,8F,FF,0F,FF
239758000,00000346,false,0,8,27,10,29,44,48,00,00,64
239757800,00000285,false,1,8,00,00,03,0A,7B,00,08,10
239759000,00000222,false,0,8,00,00,00,00,04,00,00,00
239760300,00000359,false,0,8,30,03,7F,80,C0,00,2E,00
239760500,0000035A,false,0,8,00,80,80,80,80,00,0C,00
239760300,00000370,false,1,8,05,BE,00,00,00,40,00,00
239761200,00000289,false,1,8,27,10,4E,20,0C,01,11,10
239760800,000002E1,false,0,8,00,00,00,9F,FF,00,00,00
239762600,00000101,false,0,1,44
239761400,0000028B,false,1,8,27,10,4E,20,0C,00,01,10
239761700,00000566,false,1,8,00,8A,08,00,00,00,00,80
239761900,0000056A,false,1,8,00,8A,08,00,00,00,00,80
239763500,00000373,false,1,8,BA,B9,7F,BC,0C,5B,80,16
239762900,00000215,false,0,8,00,00,00,00,00,00,07,00
239763400,00000236,false,0,8,10,13,10,00,70,00,00,CB
239763700,00000229,false,0,8,08,67,D0,3F,FF,14,00,00
239763900,00000300,false,0,8,00,00,FF,FF,9F,FF,FF,FF
239764200,00000133,false,0,8,6E,E0,03,00,40,00,00,00
239764400,00000328,false,0,8,00,00,FF,00,B0,00,00,E8
239764300,00000288,false,1,8,27,10,4E,20,0C,00,01,10
239764600,00000564,false,1,8,00,8A,A8,00,00,00,00,80
239765100,00000362,false,1,8,01,00,10,04,00,00,00,00
239765300,00000287,false,1,8,27,10,27,10,27,10,00,02
239764700,00000308,false,0,8,00,00,00,46,01,66,CA,00
239764900,00000330,false,0,8,19,00,00,00,FF,FF,3F,FF
239765100,00000312,false,0,8,66,EE,06,EE,08,EE,07,21
239765400,00000143,false,0,8,00,00,00,04,08,7D,11,17
239765600,000007BC,false,0,8,19,00,07,61,61,2F,7E,00
239765800,00000315,false,0,8,4D,02,00,00,00,00,71,01
239766100,00000390,false,0,8,08,00,FF,FF,FE,00,00,00
239766500,00000377,false,1,8,04,C6,00,0A,36,36,35,20
239767800,00000285,false,1,8,00,00,03,0A,7A,00,08,10
239767800,00000145,false,0,8,4E,20,AF,FF,8F,FF,0F,FF
239768000,00000348,false,0,8,7F,FE,FF,FE,00,00,FF,FE
239769000,0000022D,false,0,8,00,00,47,FF,00,00,00,00
239770300,0000032D,false,0,8,00,4E,20,4E,20,33,19,00
239770500,0000035A,false,0,8,00,80,80,80,80,00,00,00
239770900,00000425,false,0,8,00,21,0A,10,00,00,00,00
239771200,00000289,false,1,8,27,10,4E,20,0C,01,11,10
239771400,0000028B,false,1,8,27,10,4E,20,0C,00,01,10
239771700,00000567,false,1,8,80,00,00,00,00,00,00,00
239771900,0000022A,false,0,8,00,18,84,00,04,00,04,00
239772800,00000210,false,0,8,00,00,00,00,40,07,D0,FF
239773000,000004A0,false,0,8,FF,FF,33,33,FF,FF,FF,04
239771900,0000056B,false,1,8,80,00,00,00,00,00,00,00
239772200,00000732,false,1,8,03,E8,03,E8,64,64,05,39
239772400,00000734,false,1,8,03,E8,03,E8,64,64,38,38
239773500,00000373,false,1,8,BA,B9,7F,BC,0C,5B,80,16
239773300,00000200,false,0,8,1E,03,00,00,C0,00,C0,00
239773500,00000208,false,0,8,00,20,30,5C,00,00,40,00
239773800,00000214,false,0,8,00,00,00,00,00,00,03,00
239774000,00000133,false,0,8,6E,E0,00,00,40,00,00,00
239774200,00000236,false,0,8,10,13,10,00,80,00,00,43
239774500,000002F1,false,0,8,00,80,1A,85,00,E8,E3,00
239774100,00000288,false,1,8,27,10,4E,20,0C,00,01,10
239774400,00000565,false,1,8,80,00,00,00,00,00,00,00
239774600,0000075A,false,1,8,03,E8,03,E8,64,64,38,39
239775000,00000362,false,1,8,01,00,10,04,00,00,00,00
239775300,00000287,false,1,8,27,10,27,10,27,10,00,02
239775900,000006FA,false,1,8,02,38,36,37,00,00,00,00
239776200,000005A1,false,1,8,00,00,00,20,00,00,00,22
239774700,00000308,false,0,8,00,00,00,06,00,06,CA,00
239775000,0000032F,false,0,8,C1,12,00,00,00,00,00,00
239775200,00000312,false,0,8,06,EE,06,EE,08,EE,07,21
239775400,00000143,false,0,8,00,00,00,04,08,7D,11,17
239775700,000006FA,false,0,8,02,38,36,37,00,00,00,00
239775900,00000418,false,0,8,50,FF,FF,00,00,00,00,01
239776200,00000424,false,0,8,05,7A,00,10,00,03,00,00
239776400,00000424,false,1,8,05,7A,00,10,00,03,00,00
239777800,00000285,false,1,8,00,00,03,0A,7A,00,08,10
239778000,00000188,false,1,8,00,00,FF,FF,00,00,00,00
239777600,00000188,false,0,8,00,00,FF,FF,00,00,00,00
239777800,00000145,false,0,8,4E,20,AF,FF,8F,FF,0F,FF
239778100,00000346,false,0,8,27,10,29,44,48,00,00,64
239780200,00000359,false,0,8,30,03,7F,80,C0,00,2E,00
239780500,0000035A,false,0,8,00,80,80,80,80,00,00,00
239780900,000002E1,false,0,8,00,00,80,1F,FF,00,00,00
239780200,00000370,false,1,8,05,BE,00,00,00,40,00,00
239781200,00000289,false,1,8,27,10,4E,20,0C,01,11,10
239781400,0000056D,false,1,8,00,00,00,00,00,00,00,80
239781100,0000039A,false,0,8,67,F8,00,00,00,00,00,00
239781700,0000028B,false,1,8,27,10,4E,20,0C,00,01,10
239781900,0000056F,false,1,8,00,00,00,00,00,00,00,80
239782700,00000144,false,0,8,04,00,00,00,00,00,00,00
239783000,00000215,false,0,8,00,00,00,00,00,00,07,00
239783200,00000229,false,0,8,08,07,D0,3F,FF,0C,00,00
239783500,00000236,false,0,8,10,13,10,00,90,00,00,5B
239783700,00000300,false,0,8,00,80,FF,FF,1F,FF,FF,FF
239783500,00000373,false,1,8,BA,B9,7F,BC,0C,5B,80,16
239784100,00000288,false,1,8,27,10,4E,20,0C,00,01,10
239784400,00000388,false,1,8,01,00,00,00,00,00,00,02
239784000,00000133,false,0,8,6E,E0,00,00,40,00,00,00
239784200,00000328,false,0,8,00,00,FF,00,C0,00,00,A0
239784500,00000308,false,0,8,00,00,00,06,00,06,CA,00
239784700,00000330,false,0,8,01,00,00,00,FF,FF,3F,FF
239784900,00000312,false,0,8,06,EE,06,EE,08,EE,07,21
239785200,00000388,false,0,8,01,00,00,00,00,00,00,02
239785400,000007BC,false,0,8,1A,00,6F,74,1E,3E,31,00
239784600,0000056C,false,1,8,00,00,00,00,00,00,00,80
239785100,00000362,false,1,8,01,00,10,04,00,00,00,00
239785300,00000287,false,1,8,27,10,27,10,27,10,00,02
239786500,00000377,false,1,8,04,C4,00,0A,36,36,35,20
239785700,00000143,false,0,8,00,00,00,1C,08,7D,11,17
239785900,00000315,false,0,8,11,02,00,00,00,00,71,01
239786200,000006FF,false,0,8,4D,01,0A,96,60,00,00,00
239787700,00000285,false,1,8,00,00,03,0A,7A,00,08,10
239787700,00000145,false,0,8,4E,20,6F,FF,8F,FF,0F,FF
239789100,0000022D,false,0,8,00,18,87,FF,00,00,00,00
239790200,0000035A,false,0,8,00,80,80,80,80,00,0C,00
239790800,000006FD,false,0,8,01,8B,22,41,10,04,C8,18
239791100,00000289,false,1,8,27,10,4E,20,0C,01,11,10
239791400,00000732,false,1,8,03,E8,03,E8,64,64,05,39
239791600,0000028B,false,1,8,27,10,4E,20,0C,00,01,10
239791800,00000733,false,1,8,34,35,34,36,10,B0,A1,36
239792100,00000734,false,1,8,03,E8,03,E8,64,64,38,38
239792300,00000735,false,1,8,35,00,35,00,10,B0,A1,38
239791900,0000022A,false,0,8,00,00,44,00,04,00,04,00
239792700,00000210,false,0,8,00,00,00,80,C0,07,D0,FF
239793000,00000520,false,0,8,00,00,00,00,00,00,00,00
239793300,00000200,false,0,8,1E,03,00,00,00,00,00,00
239793500,00000208,false,0,8,00,20,00,5C,00,00,00,00
239793800,00000214,false,0,8,00,00,00,00,00,00,00,00
239793500,00000373,false,1,8,BA,B9,7F,BC,0C,5B,80,16
239794300,00000288,false,1,8,27,10,4E,20,0C,00,01,10
239794500,00000676,false,1,8,00,00,00,00,00,00,00,00
239794000,00000133,false,0,8,6E,E0,03,00,40,00,00,00
239794200,00000236,false,0,8,10,13,10,00,A0,00,00,73
239794500,000002F1,false,0,8,00,80,17,A8,00,A3,0A,00
239794700,00000308,false,0,8,00,00,00,46,01,66,CA,00
239795000,0000032F,false,0,8,9C,13,00,00,00,00,00,00
239795200,00000143,false,0,8,00,00,00,1C,08,7D,11,17
239795400,00000312,false,0,8,66,EE,06,EE,08,EE,07,21
239795700,00000418,false,0,8,50,FF,FF,00,00,00,00,01
239795900,00000608,false,0,8,35,3E,00,00,00,00,00,00
239796200,000006FB,false,0,8,01,80,1C,04,83,0A,00,40
239794700,0000075A,false,1,8,03,E8,03,E8,64,64,38,39
239795000,0000075B,false,1,8,35,00,35,00,10,B2,A1,39
239795200,00000362,false,1,8,01,00,10,04,00,00,00,00
239795400,00000287,false,1,8,27,10,27,10,27,10,00,02
239796500,0000038A,false,1,8,36,35,00,00,04,00,00,00
239797700,00000145,false,0,8,4E,20,6F,FF,8F,FF,0F,FF
239797900,00000346,false,0,8,27,10,29,44,48,00,00,64
239797700,00000285,false,1,8,00,00,03,0A,7A,00,08,10
239800200,00000370,false,1,8,05,BE,00,00,00,40,00,00
239801100,00000289,false,1,8,27,10,4E,20,0C,01,11,10
239800100,00000359,false,0,8,30,03,7F,80,C0,00,2E,00
239800400,0000035A,false,0,8,00,80,80,80,80,00,0C,00
239800700,000002E1,false,0,8,00,00,80,1F,FF,00,00,00
239801000,000005FE,false,0,8,41,28,D5,15,20,18,08,6B
239801200,0000030C,false,0,8,00,00,00,00,00,00,00,00
239801300,0000029A,false,1,8,01,32,57,4B,5A,30,30,30
239801600,0000028B,false,1,8,27,10,4E,20,0C,00,01,10
239802700,00000215,false,0,8,00,00,00,00,00,00,04,00
239803300,00000229,false,0,8,08,07,D0,3F,FF,0C,00,00
239803600,00000236,false,0,8,10,13,10,00,B0,00,00,6B
239803800,00000300,false,0,8,00,80,FF,FF,1F,FF,FF,FF
239804000,00000133,false,0,8,6E,E0,03,00,40,00,00,00
239804300,00000328,false,0,8,00,00,FF,00,D0,00,00,B8
239803500,00000373,false,1,8,BA,B9,7F,BC,0C,5B,80,16
239804200,00000288,false,1,8,27,10,4E,20,0C,00,01,10
239804500,00000677,false,1,8,00,00,00,00,00,00,00,00
239805000,00000362,false,1,8,01,00,10,04,00,00,00,00
239805300,00000287,false,1,8,27,10,27,10,27,10,00,02
239804500,00000308,false,0,8,00,00,00,46,01,66,CA,00
239804800,00000330,false,0,8,01,00,00,00,FF,FF,3F,FF
239805000,00000312,false,0,8,66,EE,06,EE,08,EE,07,21
239805200,00000143,false,0,8,00,00,00,04,08,7D,11,17
239805500,000007BC,false,0,8,1B,00,00,00,07,00,00,00
239805700,00000315,false,0,8,55,02,00,00,00,00,71,01
239806500,00000377,false,1,8,04,C6,00,0A,36,36,35,20
239807700,00000185,false,1,8,08,00,0A,00,00,00,00,00
239807900,00000285,false,1,8,00,00,03,0A,7A,00,08,10
239807400,00000185,false,0,8,08,00,0A,00,00,00,00,00
239807700,00000145,false,0,8,4E,20,AF,FF,8F,FF,0F,FF
239809200,0000022D,false,0,8,00,18,87,FF,00,00,00,00
239808500,00000374,false,1,8,81,82,47,EB,3D,3C,3F,30
239810100,0000035A,false,0,8,00,80,80,80,80,00,00,00
239810800,00000425,false,0,8,00,21,0A,10,00,00,00,00
239811100,00000289,false,1,8,27,10,4E,20,0C,01,11,10
239811300,00000566,false,1,8,00,8A,08,00,00,00,00,80
239811600,0000028B,false,1,8,27,10,4E,20,0C,00,01,10
