Time Stamp,ID,Extended,Bus,LEN,D1,D2,D3,D4,D5,D6,D7,D8
282012600,00000236,false,0,8,0F,FA,10,00,D0,00,00,4A
361302900,00000312,false,0,8,66,F0,06,F0,08,EF,07,23
361303100,0000022B,false,0,8,04,FF,00,00,00,00,00,00
361303400,00000315,false,0,8,5C,02,00,00,00,00,71,01
361303600,00000353,false,0,8,00,00,00,00,00,00,00,00
361303900,000007BC,false,0,8,09,00,78,00,00,00,00,00
361304100,00000345,false,0,8,00,00,FF,FF,0F,FF,0F,FF
361304400,0000035A,false,0,8,00,80,80,80,80,00,00,00
361305000,00000229,false,0,8,08,07,D0,3F,FF,0C,00,00
361305200,00000300,false,0,8,00,80,83,80,1F,FF,7F,F3
361305500,00000328,false,0,8,00,00,83,00,60,00,00,50
361305700,00000330,false,0,8,15,00,00,00,FF,FF,3F,80
361306300,00000210,false,0,8,00,00,00,80,C0,07,D0,FF
361306600,00000236,false,0,8,0F,FA,10,00,00,00,00,F2
361306800,0000038C,false,0,8,66,04,20,40,00,00,00,00
361308500,00000425,false,0,8,00,21,0A,10,00,00,00,00
361308800,00000143,false,0,8,00,00,00,04,08,7D,11,17
361309100,00000418,false,0,8,50,FF,FF,00,00,00,00,01
361307900,00000289,false,1,8,27,10,4E,20,0D,3C,11,10
361308200,00000566,false,1,8,22,8A,0A,A0,A8,A0,AA,8A
361308700,00000568,false,1,8,00,02,80,0A,00,00,A8,AA
361309000,00000287,false,1,8,27,10,27,10,27,10,00,00
361310300,0000028B,false,1,8,27,10,4E,20,0D,3D,01,14
361310600,0000056A,false,1,8,22,8A,0A,A0,A8,A0,AA,8A
361311300,00000133,false,0,8,6F,00,00,00,40,00,00,00
361311500,00000145,false,0,8,4E,20,AF,FF,8F,FF,0F,FF
361311700,00000308,false,0,8,00,00,00,00,00,06,CC,00
361312000,00000346,false,0,8,27,10,29,24,00,01,08,64
361312200,00000312,false,0,8,06,F0,06,F0,08,EF,07,23
361312400,000002E1,false,0,8,00,00,80,1F,FF,00,00,00
361311300,00000285,false,1,8,00,00,14,09,91,FE,0C,10
361311900,00000373,false,1,8,B9,B9,7F,7C,0C,58,80,16
361313000,00000288,false,1,8,27,10,4E,20,0D,3B,01,10
361313300,00000362,false,1,8,02,01,00,00,00,00,00,00
361313500,00000424,false,1,8,04,91,04,10,00,05,00,00
361313800,00000564,false,1,8,22,8A,AA,AA,A8,A0,AA,8A
361314000,00000370,false,1,8,05,BE,00,00,00,00,00,00
361313200,00000424,false,0,8,04,91,04,10,00,05,00,00
361313800,00000359,false,0,8,30,03,7F,80,C0,00,2E,00
361314000,0000035A,false,0,8,00,80,80,80,80,00,00,00
361314300,0000032F,false,0,8,4E,1B,00,00,00,00,00,00
361315000,00000200,false,0,8,00,03,00,00,00,00,00,00
361315200,00000208,false,0,8,00,20,00,00,00,00,00,00
361315500,00000214,false,0,8,00,00,00,00,00,00,00,00
361316200,00000101,false,0,1,84
361316400,0000022D,false,0,8,01,00,47,FF,00,00,00,00
361316700,00000215,false,0,8,00,00,00,00,00,00,04,00
361316900,00000236,false,0,8,0F,FA,10,00,10,00,00,EA
361317900,00000289,false,1,8,27,10,4E,20,0D,3C,11,10
361318200,00000567,false,1,8,AA,02,00,00,80,AA,00,00
361318800,00000143,false,0,8,00,00,00,1C,08,7D,11,17
361319000,00000390,false,0,8,08,00,FF,FF,FE,00,00,00
361318500,00000732,false,1,8,03,E8,03,E8,64,64,05,3A
361318700,00000377,false,1,8,05,B9,00,7B,3A,37,37,22
361318900,00000287,false,1,8,27,10,27,10,27,10,00,00
361320300,0000028B,false,1,8,27,10,4E,20,0D,3D,01,14
361321200,00000133,false,0,8,6F,00,00,00,40,00,00,00
361321400,00000145,false,0,8,4E,20,6F,FF,8F,FF,0F,FF
361321600,000002F1,false,0,8,00,00,15,6C,00,DF,FF,00
361320600,0000056B,false,1,8,AA,02,00,00,80,AA,00,00
361320800,00000734,false,1,8,03,E8,03,E8,64,64,35,35
361321300,00000285,false,1,8,00,00,14,09,91,FE,0C,10
361321900,00000373,false,1,8,B9,B9,7F,7C,0C,58,80,16
361321900,00000308,false,0,8,00,00,00,00,00,06,CC,00
361322100,00000348,false,0,8,7F,FE,FF,FE,00,00,FF,FE
361322400,00000312,false,0,8,06,F0,06,F0,08,EF,07,23
361322600,000007BC,false,0,8,0A,90,17,A0,01,00,00,00
361322900,0000022A,false,0,8,00,00,44,00,04,00,04,00
361323200,00000315,false,0,8,60,02,00,00,00,00,71,01
361323800,0000032D,false,0,8,A0,4E,20,4E,20,33,19,00
361323200,00000288,false,1,8,27,10,4E,20,0D,3B,01,10
361323500,00000362,false,1,8,02,01,00,00,00,00,00,00
361323700,00000565,false,1,8,AA,02,00,00,80,AA,00,00
361323900,0000075A,false,1,8,03,E8,03,E8,64,64,36,37
361324300,000005A1,false,1,8,2A,A2,AA,2A,A2,8A,82,A2
361324000,0000035A,false,0,8,00,80,80,80,80,00,0C,00
361325000,00000229,false,0,8,08,07,D0,3F,FF,0C,00,00
361325300,00000300,false,0,8,00,80,83,80,1F,FF,7F,F3
361325500,00000328,false,0,8,00,00,83,00,70,00,00,48
361325700,00000330,false,0,8,15,00,00,00,FF,FF,3F,80
361326300,00000210,false,0,8,00,00,00,00,40,07,D0,FF
361326500,00000236,false,0,8,0F,FA,10,00,20,00,00,C2
361326800,000004A0,false,0,8,FF,FF,33,33,FF,FF,FF,00
361327900,00000289,false,1,8,27,10,4E,20,0D,3C,11,10
361328100,0000056D,false,1,8,2A,00,00,20,00,00,28,8A
361328700,00000563,false,1,8,AA,AA,AA,AA,A2,2A,00,00
361328700,00000143,false,0,8,00,00,00,1C,08,7D,11,17
361329000,00000418,false,0,8,50,FF,FF,00,00,00,00,01
361328900,00000287,false,1,8,27,10,27,10,27,10,00,00
361330300,0000028B,false,1,8,27,10,4E,20,0D,3D,01,14
361330600,0000056F,false,1,8,2A,88,2A,28,00,00,28,8A
361331300,00000285,false,1,8,00,00,14,09,91,FE,0C,10
361331100,00000133,false,0,8,6F,00,03,00,40,00,00,00
361331400,00000145,false,0,8,4E,20,6F,FF,8F,FF,0F,FF
361331600,00000308,false,0,8,00,00,00,40,01,66,CC,00
361331900,00000373,false,1,8,B9,B9,7F,7C,0C,58,80,16
361332600,000006FA,false,1,8,00,4A,4D,46,58,44,47,47
361331900,00000346,false,0,8,27,10,29,24,00,01,08,64
361332100,00000312,false,0,8,66,F0,06,F0,08,EF,07,23
361332300,000006FA,false,0,8,00,4A,4D,46,58,44,47,47
361332600,000002E1,false,0,8,00,00,80,1F,FF,00,00,00
361333100,00000288,false,1,8,27,10,4E,20,0D,3B,01,10
361333400,00000362,false,1,8,02,01,00,00,00,00,00,00
361333600,0000056C,false,1,8,2A,88,02,20,00,00,28,8A
361333900,00000370,false,1,8,05,BE,00,00,00,00,00,00
361333700,00000359,false,0,8,30,03,7F,80,C0,00,2E,00
361334000,0000035A,false,0,8,00,80,80,80,80,00,0C,00
361334500,0000032F,false,0,8,C0,1C,00,00,00,00,00,00
361334700,00000388,false,1,8,01,00,00,00,00,00,00,02
361334700,0000034A,false,0,8,11,00,01,00,00,00,00,00
361335000,00000200,false,0,8,00,03,00,00,40,00,40,00
361335200,00000208,false,0,8,00,20,00,00,00,00,00,00
361335500,00000214,false,0,8,00,00,00,00,00,00,00,00
361335700,00000388,false,0,8,01,00,00,00,00,00,00,02
361336300,00000144,false,0,8,00,00,00,00,00,00,00,00
361336500,00000236,false,0,8,0F,FA,10,00,30,00,00,DA
361336800,00000215,false,0,8,00,00,00,00,00,00,04,00
361337000,0000022D,false,0,8,01,18,87,FF,00,00,00,00
361337900,00000289,false,1,8,27,10,4E,20,0D,3C,11,10
361338200,00000732,false,1,8,03,E8,03,E8,64,64,05,3A
361338500,00000733,false,1,8,35,37,35,37,10,B0,A1,37
361338700,00000377,false,1,8,05,B9,00,7B,3A,37,37,22
361338900,00000287,false,1,8,27,10,27,10,27,10,00,00
361338600,0000039A,false,0,8,67,F8,00,00,00,00,00,00
361338800,00000143,false,0,8,00,00,00,04,08,7D,11,17
361340300,0000028B,false,1,8,27,10,4E,20,0D,3D,01,14
361340500,00000734,false,1,8,03,E8,03,E8,64,64,35,35
361340800,00000735,false,1,8,35,00,35,00,10,B0,A1,36
361341100,00000133,false,0,8,6F,00,03,00,40,00,00,00
361341300,00000145,false,0,8,4E,20,AF,FF,8F,FF,0F,FF
361341600,000002F1,false,0,8,00,00,15,71,00,DF,FF,00
361341800,00000308,false,0,8,00,00,00,40,01,66,CC,00
361342300,00000312,false,0,8,66,F0,06,F0,08,EF,07,23
361341200,00000285,false,1,8,00,00,14,09,91,FE,0C,10
361341800,00000373,false,1,8,B9,B9,7F,7C,0C,58,80,16
361343100,00000288,false,1,8,27,10,4E,20,0D,3B,01,10
361343400,00000362,false,1,8,02,01,00,00,00,00,00,00
361342500,0000022A,false,0,8,00,00,44,00,04,00,04,00
361342800,000007BC,false,0,8,0B,00,00,00,00,00,00,80
361343100,00000315,false,0,8,24,02,00,00,00,00,71,01
361343700,0000035A,false,0,8,00,80,80,80,80,00,00,00
361344900,00000229,false,0,8,08,67,D0,3F,FF,14,00,00
361343600,0000075A,false,1,8,03,E8,03,E8,64,64,36,37
361343900,0000075B,false,1,8,35,00,35,00,10,B2,A1,37
361345200,00000300,false,0,8,00,00,83,80,9F,FF,7F,F3
361345400,00000328,false,0,8,00,00,83,00,80,00,00,C0
361345700,00000330,false,0,8,0D,00,00,00,FF,FF,3F,80
361346200,00000210,false,0,8,00,00,00,00,40,07,D0,FF
361346500,00000236,false,0,8,0F,FA,10,00,40,00,00,92
361346700,00000366,false,0,8,11,07,00,00,00,00,00,00
361347000,00000520,false,0,8,00,00,00,00,00,00,00,00
361347800,00000289,false,1,8,27,10,4E,20,0D,3C,11,10
361348100,0000029A,false,1,8,00,4A,4D,46,58,44,47,47
361348700,0000038A,false,1,8,39,36,00,00,04,00,00,00
361348400,00000425,false,0,8,00,21,0A,10,00,00,00,00
361348700,00000143,false,0,8,00,00,00,04,08,7D,11,17
361348900,00000418,false,0,8,50,FF,FF,00,00,00,00,01
361348900,00000287,false,1,8,27,10,27,10,27,10,00,00
361350300,0000028B,false,1,8,27,10,4E,20,0D,3D,01,14
361351100,00000133,false,0,8,6F,00,00,00,40,00,00,00
361351300,00000145,false,0,8,4E,20,AF,FF,8F,FF,0F,FF
361351600,00000308,false,0,8,00,00,00,00,00,06,CC,00
361351200,00000285,false,1,8,00,00,14,09,91,FE,0C,10
361351800,00000373,false,1,8,B9,B9,7F,7C,0C,58,80,16
361351800,000002E1,false,0,8,00,00,00,9F,FF,00,00,00
361352100,00000312,false,0,8,06,F0,06,F0,08,EF,07,23
361352300,0000030C,false,0,8,00,00,00,00,00,00,00,00
361352500,00000346,false,0,8,27,10,29,24,00,01,08,64
361352800,00000608,false,0,8,36,40,00,00,00,00,00,00
361353200,00000424,false,0,8,04,91,04,10,00,05,00,00
361353700,00000359,false,0,8,30,03,7F,80,C0,00,2E,00
361353000,00000362,false,1,8,02,01,00,00,00,00,00,00
361353300,00000288,false,1,8,27,10,4E,20,0D,3B,01,10
361353500,00000424,false,1,8,04,91,04,10,00,05,00,00
361353800,00000370,false,1,8,05,BE,00,00,00,00,00,00
361353900,0000035A,false,0,8,00,80,80,80,80,00,00,00
361354600,0000032F,false,0,8,9D,1D,00,00,00,00,00,00
361354900,00000200,false,0,8,00,03,00,00,80,00,80,00
361355200,00000208,false,0,8,00,20,30,00,00,00,40,00
361355400,00000214,false,0,8,00,00,00,00,00,00,03,00
361356200,00000215,false,0,8,00,00,00,00,00,00,07,00
361356400,0000022D,false,0,8,01,18,87,FF,00,00,00,00
361356700,00000236,false,0,8,0F,FA,10,00,50,00,00,8A
361356800,00000374,false,1,8,81,82,6E,FE,3E,3C,3F,30
361357800,00000289,false,1,8,27,10,4E,20,0D,3C,11,10
361358100,00000566,false,1,8,22,8A,0A,A0,A8,A0,AA,8A
361358400,00000732,false,1,8,03,E8,03,E8,64,64,05,3A
361358700,00000377,false,1,8,05,B9,00,7B,3A,37,37,22
361358700,00000143,false,0,8,00,00,00,1C,08,7D,11,17
361358900,00000287,false,1,8,27,10,27,10,27,10,00,00
361360300,0000028B,false,1,8,27,10,4E,20,0D,3D,01,14
361360500,0000056A,false,1,8,22,8A,0A,A0,A8,A0,AA,8A
361360800,00000734,false,1,8,03,E8,03,E8,64,64,35,35
361361200,00000285,false,1,8,00,00,14,09,91,FE,0C,10
361361100,00000133,false,0,8,6F,00,00,00,40,00,00,00
361361300,00000145,false,0,8,4E,20,6F,FF,8F,FF,0F,FF
361361500,000002F1,false,0,8,00,00,15,6D,00,5F,FF,00
361361800,00000308,false,0,8,00,00,00,00,00,06,CC,00
361362200,00000312,false,0,8,06,F0,06,F0,08,EF,07,23
361362500,0000022A,false,0,8,00,18,84,00,04,00,04,00
361361800,00000373,false,1,8,B9,B9,7F,7C,0C,58,80,16
361363100,00000288,false,1,8,27,10,4E,20,0D,3B,01,10
361362700,000007BC,false,0,8,0C,00,36,38,00,00,00,00
361363100,00000315,false,0,8,28,02,00,00,00,00,71,01
361363700,0000035A,false,0,8,00,80,80,80,80,00,0C,00
361363400,00000362,false,1,8,02,01,00,00,00,00,00,00
361363600,00000564,false,1,8,22,8A,AA,AA,A8,A0,AA,8A
361363800,0000075A,false,1,8,03,E8,03,E8,64,64,36,37
361364900,00000229,false,0,8,08,67,D0,3F,FF,14,00,00
361365200,00000300,false,0,8,00,00,83,80,9F,FF,7F,F3
361365400,00000328,false,0,8,00,00,83,00,90,00,00,D8
361365700,00000330,false,0,8,0D,00,00,00,FF,FF,3F,80
361365900,0000022E,false,0,8,00,00,00,00,00,00,00,00
361366200,00000210,false,0,8,00,00,00,80,C0,07,D0,FF
361366800,00000375,false,1,8,08,08,00,19,28,00,00,00
361366400,00000236,false,0,8,0F,FA,10,00,60,00,00,A2
361367900,00000289,false,1,8,27,10,4E,20,0D,3C,11,10
361368100,00000567,false,1,8,AA,02,00,00,80,AA,00,00
361368700,00000389,false,1,8,9E,00,00,36,36,40,00,00
361368600,00000143,false,0,8,00,00,00,1C,08,7D,11,17
361368900,00000418,false,0,8,50,FF,FF,00,00,00,00,01
361368900,00000287,false,1,8,27,10,27,10,27,10,00,00
361370300,0000028B,false,1,8,27,10,4E,20,0D,3D,01,14
361370500,0000056B,false,1,8,AA,02,00,00,80,AA,00,00
361371200,00000285,false,1,8,00,00,14,09,91,FE,0C,10
361371000,00000133,false,0,8,6F,00,03,00,40,00,00,00
361371300,00000145,false,0,8,4E,20,6F,FF,8F,FF,0F,FF
361371500,00000308,false,0,8,00,00,00,40,01,66,CC,00
361371800,00000373,false,1,8,B9,B9,7F,7C,0C,58,80,16
361372300,00000188,false,1,8,00,00,FF,FF,00,00,00,00
361373100,00000288,false,1,8,27,10,4E,20,0D,3B,01,10
361371800,000002E1,false,0,8,00,00,00,9F,FF,00,00,00
361372000,00000188,false,0,8,00,00,FF,FF,00,00,00,00
361372200,00000312,false,0,8,66,F0,06,F0,08,EF,07,23
361372500,00000346,false,0,8,27,10,29,24,00,01,08,64
361372700,00000415,false,0,7,00,00,00,00,00,00,C8
361373600,00000359,false,0,8,30,03,7F,80,C0,00,2E,00
361373900,0000035A,false,0,8,00,80,80,80,80,00,0C,00
361374800,0000032F,false,0,8,7A,1E,00,00,00,00,00,00
361373400,00000362,false,1,8,02,01,00,00,00,00,00,00
361373600,00000565,false,1,8,AA,02,00,00,80,AA,00,00
361373800,00000370,false,1,8,05,BE,00,00,00,00,00,00
361374300,000005A1,false,1,8,2A,A2,AA,2A,A2,8A,82,A2
361375000,00000200,false,0,8,00,03,00,00,C0,00,C0,00
361375300,00000208,false,0,8,00,20,30,00,00,00,40,00
361375500,00000214,false,0,8,00,00,00,00,00,00,03,00
361376100,00000215,false,0,8,00,00,00,00,00,00,07,00
361376400,0000022D,false,0,8,01,00,47,FF,00,00,00,00
361376600,00000236,false,0,8,0F,FA,10,00,70,00,00,BA
361376900,00000347,false,0,8,09,00,00,16,12,00,02,3A
361377800,00000289,false,1,8,27,10,4E,20,0D,3C,11,10
361378100,0000056D,false,1,8,2A,00,00,20,00,00,28,8A
361378400,00000732,false,1,8,03,E8,03,E8,64,64,05,3A
361378600,00000377,false,1,8,05,B9,00,7B,3A,37,37,22
361378900,00000287,false,1,8,27,10,27,10,27,10,00,00
361378600,00000143,false,0,8,00,00,00,04,08,7D,11,17
361380200,0000028B,false,1,8,27,10,4E,20,0D,3D,01,14
361380500,0000056F,false,1,8,2A,88,2A,28,00,00,28,8A
361381000,00000133,false,0,8,6F,00,03,00,40,00,00,00
361381200,00000145,false,0,8,4E,20,AF,FF,8F,FF,0F,FF
361380700,00000734,false,1,8,03,E8,03,E8,64,64,35,35
361381100,00000285,false,1,8,00,00,14,09,91,FE,0C,10
361381800,00000373,false,1,8,B9,B9,7F,7C,0C,58,80,16
361381500,000002F1,false,0,8,00,00,15,6D,00,5F,FF,00
361381700,00000308,false,0,8,00,00,00,40,01,66,CC,00
361382200,00000312,false,0,8,66,F0,06,F0,08,EF,07,23
361383000,00000288,false,1,8,27,10,4E,20,0D,3B,01,10
361383200,00000362,false,1,8,02,01,00,00,00,00,00,00
361382400,000007BC,false,0,8,0D,00,00,00,00,00,00,00
361382700,0000022A,false,0,8,00,18,84,00,04,00,04,00
361383000,00000315,false,0,8,6C,02,00,00,00,00,71,01
361383600,0000035A,false,0,8,00,80,80,80,80,00,00,00
361383400,0000056C,false,1,8,2A,88,02,20,00,00,28,8A
361383700,0000075A,false,1,8,03,E8,03,E8,64,64,36,37
361384900,00000207,false,0,8,00,00,00,00,00,00,00,00
361385100,00000229,false,0,8,08,07,D0,3F,FF,0C,00,00
361385400,00000300,false,0,8,00,80,83,80,1F,FF,7F,F2
361385200,00000207,false,1,8,00,00,00,00,00,00,00,00
361385600,00000328,false,0,8,00,00,83,00,A0,00,00,F0
361385900,00000222,false,0,8,00,00,00,00,04,00,00,00
361386100,00000330,false,0,8,15,00,00,00,FF,FF,3F,80
361386400,00000210,false,0,8,00,00,00,80,C0,07,D0,FF
361386600,00000236,false,0,8,0F,FA,10,00,80,00,00,32
361388300,00000425,false,0,8,00,21,0A,10,00,00,00,00
361388600,00000143,false,0,8,00,00,00,04,08,7D,11,17
361387800,00000289,false,1,8,27,10,4E,20,0D,3C,11,10
361388600,00000287,false,1,8,27,10,27,10,27,10,00,00
361388800,00000664,false,1,8,02,83,06,32,F3,00,00,00
361388800,0000039A,false,0,8,67,F8,00,00,00,00,00,00
361389100,00000418,false,0,8,50,FF,FF,00,00,00,00,01
361390200,0000028B,false,1,8,27,10,4E,20,0D,3D,01,14
361391100,00000285,false,1,8,00,00,14,09,91,FE,0C,10
361391000,00000133,false,0,8,6F,00,00,00,40,00,00,00
361391200,00000145,false,0,8,4E,20,AF,FF,8F,FF,0F,FF
361391500,00000134,false,0,8,20,00,00,00,00,00,51,08
361391700,00000346,false,0,8,27,10,29,24,00,01,08,64
361391900,000002E1,false,0,8,00,00,80,1F,FF,00,00,00
361392200,00000308,false,0,8,00,00,00,00,00,06,CC,00
361391800,00000373,false,1,8,B9,B9,7F,7C,0C,58,80,16
361393100,00000362,false,1,8,02,01,00,00,00,00,00,00
361393300,00000288,false,1,8,27,10,4E,20,0D,3B,01,10
361392400,00000312,false,0,8,06,F0,06,F0,08,EF,07,23
361393100,00000424,false,0,8,04,91,04,10,00,05,00,00
361393600,00000359,false,0,8,30,03,7F,80,C0,00,2E,00
361393800,0000035A,false,0,8,00,80,80,80,80,00,00,00
361393500,00000424,false,1,8,04,91,04,10,00,05,00,00
361393800,00000370,false,1,8,05,BE,00,00,00,00,00,00
361394900,00000200,false,0,8,00,03,00,00,00,00,00,00
361395100,00000208,false,0,8,00,20,00,00,00,00,00,00
361395400,00000214,false,0,8,00,00,00,00,00,00,00,00
361395600,0000032F,false,0,8,27,1F,00,00,00,00,00,00
361396100,00000215,false,0,8,00,00,00,00,00,00,04,00
361396300,00000236,false,0,8,0F,FA,10,00,90,00,00,2A
361396100,00000371,false,1,8,40,00,00,00,00,00,00,00
361397500,00000154,false,1,8,65,65,60,65,0A,07,6C,78
361397800,00000289,false,1,8,27,10,4E,20,0D,3C,11,10
361396600,00000520,false,0,8,00,00,00,00,00,00,00,00
361396800,0000022D,false,0,8,01,00,47,FF,00,00,00,00
361397300,00000154,false,0,8,65,65,60,65,0A,07,6C,78
361398500,00000143,false,0,8,00,00,00,1C,08,7D,11,17
361398800,00000387,false,0,8,01,FE,7F,7C,0C,58,3E,3C
361398100,00000299,false,1,8,35,37,3A,3B,35,00,00,00
361398400,00000732,false,1,8,03,E8,03,E8,64,64,05,3A
361398600,00000287,false,1,8,27,10,27,10,27,10,00,00
361398900,00000377,false,1,8,05,B9,00,7B,3A,37,37,22
361400200,0000028B,false,1,8,27,10,4E,20,0D,3D,01,14
361400500,0000029B,false,1,8,35,36,3F,36,39,0A,13,34
361400800,00000734,false,1,8,03,E8,03,E8,64,64,35,35
361400900,00000133,false,0,8,6F,00,00,00,40,00,00,00
361401200,00000145,false,0,8,4E,20,6F,FF,8F,FF,0F,FF
361401400,00000308,false,0,8,00,00,00,00,00,06,CC,00
361401100,00000285,false,1,8,00,00,14,09,91,FE,0C,10
361401800,00000373,false,1,8,B9,B9,7F,7C,0C,58,80,16
361402200,00000185,false,1,8,00,00,0A,00,00,00,00,00
361401700,000002F1,false,0,8,00,00,15,70,00,9F,FF,00
361401900,00000185,false,0,8,00,00,0A,00,00,00,00,00
361402200,0000030C,false,0,8,00,00,00,00,00,00,00,00
361402400,00000312,false,0,8,06,F0,06,F0,08,EF,07,23
361402600,0000022A,false,0,8,00,00,44,00,04,00,04,00
361402900,00000353,false,0,8,00,00,00,00,00,00,00,00
361403100,0000022B,false,0,8,04,FF,00,00,00,00,00,00
361403400,00000315,false,0,8,30,02,00,00,00,00,71,01
361403100,00000288,false,1,8,27,10,4E,20,0D,3B,01,10
361403300,00000362,false,1,8,02,01,00,00,00,00,00,00
361403500,00000298,false,1,8,35,37,3F,36,39,00,00,34
361403600,00000345,false,0,8,00,00,FF,FF,0F,FF,0F,FF
361403900,000007BC,false,0,8,0E,00,00,00,00,00,00,00
361404100,0000035A,false,0,8,00,80,80,80,80,00,0C,00
361403800,00000286,false,1,8,00,00,00,36,00,00,0A,00
361404000,0000075A,false,1,8,03,E8,03,E8,64,64,36,37
361404900,00000229,false,0,8,08,07,D0,3F,FF,0C,00,00
361405100,00000300,false,0,8,00,80,83,80,1F,FF,7F,F4
361405400,00000328,false,0,8,00,00,83,00,B0,00,00,E8
361405600,00000330,false,0,8,15,00,00,00,FF,FF,3F,80
361406100,00000210,false,0,8,00,00,00,00,40,07,D0,FF
361406300,00000236,false,0,8,0F,FA,10,00,A0,00,00,02
361406500,0000038C,false,0,8,66,04,20,40,00,00,00,00
361407800,00000289,false,1,8,27,10,4E,20,0D,3C,11,10
361408000,00000566,false,1,8,22,8A,0A,A0,A8,A0,AA,8A
361408500,00000143,false,0,8,00,00,00,1C,08,7D,11,17
361408800,00000418,false,0,8,50,FF,FF,00,00,00,00,01
361408500,00000287,false,1,8,27,10,27,10,27,10,00,00
361408800,00000663,false,1,8,01,31,30,30,00,00,00,00
361410200,0000028B,false,1,8,27,10,4E,20,0D,3D,01,14
361410400,0000056A,false,1,8,22,8A,0A,A0,A8,A0,AA,8A
361411000,00000133,false,0,8,6F,00,03,00,40,00,00,00
361411200,00000145,false,0,8,4E,20,6F,FF,8F,FF,0F,FF
361411000,00000285,false,1,8,00,00,14,09,91,FE,0C,10
361411800,00000373,false,1,8,B9,B9,7F,7C,0C,58,80,16
361411400,00000308,false,0,8,00,00,00,40,01,66,CC,00
361411700,00000346,false,0,8,27,10,29,24,00,01,08,64
361411900,000002E1,false,0,8,00,00,80,1F,FF,00,00,00
361412200,00000312,false,0,8,66,F0,06,F0,08,EF,07,23
361412400,00000673,false,0,8,00,00,00,00,00,00,00,00
361413000,00000288,false,1,8,27,10,4E,20,0D,3B,01,10
361413300,00000362,false,1,8,02,01,00,00,00,00,00,00
361413500,00000564,false,1,8,22,8A,AA,AA,A8,A0,AA,8A
361413500,00000359,false,0,8,30,03,7F,80,C0,00,2E,00
361413800,0000035A,false,0,8,00,80,80,80,80,00,0C,00
361414800,00000200,false,0,8,00,03,00,00,40,00,40,00
361413700,00000370,false,1,8,05,BE,00,00,00,00,00,00
361415100,00000208,false,0,8,00,20,00,00,00,00,00,00
361415300,00000214,false,0,8,00,00,00,00,00,00,00,00
361415600,0000032F,false,0,8,7B,10,00,00,00,00,00,00
361415900,00000101,false,0,1,84
361416200,00000215,false,0,8,00,00,00,00,00,00,04,00
361416400,00000236,false,0,8,0F,FA,10,00,B0,00,00,1A
361416600,0000022D,false,0,8,01,18,87,FF,00,00,00,00
361417700,00000289,false,1,8,27,10,4E,20,0D,3C,11,10
361418000,00000567,false,1,8,AA,02,00,00,80,AA,00,00
361418300,00000732,false,1,8,03,E8,03,E8,64,64,05,3A
361418500,00000143,false,0,8,00,00,00,04,08,7D,11,17
361418700,00000390,false,0,8,08,00,FF,FF,FE,00,00,00
361418500,00000287,false,1,8,27,10,27,10,27,10,00,00
361418800,00000377,false,1,8,05,B9,00,7B,3A,37,37,22
361420200,0000028B,false,1,8,27,10,4E,20,0D,3D,01,14
361420400,0000056B,false,1,8,AA,02,00,00,80,AA,00,00
361420900,00000133,false,0,8,6F,00,03,00,40,00,00,00
361421100,00000145,false,0,8,4E,20,AF,FF,8F,FF,0F,FF
361421400,000002F1,false,0,8,00,00,15,6D,00,9F,FF,00
361420700,00000734,false,1,8,03,E8,03,E8,64,64,35,35
361421000,00000285,false,1,8,00,00,14,09,91,FE,0C,10
361421700,00000373,false,1,8,B9,B9,7F,7C,0C,58,80,16
361421600,00000308,false,0,8,00,00,00,40,01,66,CC,00
361421800,00000348,false,0,8,7F,FE,FF,FE,00,00,FF,FE
361422100,00000312,false,0,8,66,F0,06,F0,08,EF,07,23
361422300,00000672,false,0,8,00,00,00,00,00,00,00,00
361422600,000007BC,false,0,8,0F,00,00,00,00,00,00,00
361423000,0000022A,false,0,8,00,00,44,00,04,00,04,00
361423100,00000362,false,1,8,02,01,00,00,00,00,00,00
361423300,00000288,false,1,8,27,10,4E,20,0D,3B,01,10
361423600,00000565,false,1,8,AA,02,00,00,80,AA,00,00
361423800,0000075A,false,1,8,03,E8,03,E8,64,64,36,37
361424200,000005A1,false,1,8,2A,A2,AA,2A,A2,8A,82,A2
361423300,00000315,false,0,8,74,02,00,00,00,00,71,01
361423500,0000032D,false,0,8,A0,4E,20,4E,20,33,19,00
361423700,0000035A,false,0,8,00,80,80,80,80,00,00,00
361424900,00000229,false,0,8,08,67,D0,3F,FF,14,00,00
361425100,00000300,false,0,8,00,00,83,80,9F,FF,7F,F2
361425300,00000328,false,0,8,00,00,83,00,C0,00,00,A0
361425600,00000330,false,0,8,0D,00,00,00,FF,FF,3F,80
361426000,00000210,false,0,8,00,00,00,00,40,07,D0,FF
361426300,00000236,false,0,8,0F,FA,10,00,C0,00,00,52
361426500,000004A0,false,0,8,FF,FF,33,33,FF,FF,FF,00
361427700,00000289,false,1,8,27,10,4E,20,0D,3C,11,10
361428000,0000056D,false,1,8,2A,00,00,20,00,00,28,8A
361428300,00000425,false,0,8,00,21,0A,10,00,00,00,00
361428500,00000143,false,0,8,00,00,00,04,08,7D,11,17
361428800,00000418,false,0,8,50,FF,FF,00,00,00,00,01
361428500,00000287,false,1,8,27,10,27,10,27,10,00,00
361430200,0000028B,false,1,8,27,10,4E,20,0D,3D,01,14
361430400,0000056F,false,1,8,2A,88,2A,28,00,00,28,8A
361431000,00000285,false,1,8,00,00,14,09,91,FE,0C,10
361430900,00000133,false,0,8,6F,00,00,00,40,00,00,00
361431100,00000145,false,0,8,4E,20,AF,FF,8F,FF,0F,FF
361431400,00000308,false,0,8,00,00,00,00,00,06,CC,00
361431700,00000373,false,1,8,B9,B9,7F,7C,0C,58,80,16
361431600,00000346,false,0,8,27,10,29,24,00,01,08,64
361431800,00000312,false,0,8,06,F0,06,F0,08,EF,07,23
361432100,000002E1,false,0,8,00,00,00,9F,FF,00,00,00
361432300,00000572,false,0,8,00,00,00,00,00,00,00,00
361432600,000006FA,false,0,8,01,32,57,4B,5A,30,30,30
361433000,00000424,false,0,8,04,91,04,10,00,05,00,00
361432800,000006FA,false,1,8,01,32,57,4B,5A,30,30,30
361433000,00000362,false,1,8,02,01,00,00,00,00,00,00
361433300,00000288,false,1,8,27,10,4E,20,0D,3B,01,10
361433500,00000424,false,1,8,04,91,04,10,00,05,00,00
361433800,0000056C,false,1,8,2A,88,02,20,00,00,28,8A
361434000,00000370,false,1,8,05,BE,00,00,00,00,00,00
361433400,00000359,false,0,8,30,03,7F,80,C0,00,2E,00
361433700,0000035A,false,0,8,00,80,80,80,80,00,00,00
361434800,00000388,false,0,8,01,00,00,00,00,00,00,02
361434500,00000388,false,1,8,01,00,00,00,00,00,00,02
361435100,00000200,false,0,8,00,03,00,00,80,00,80,00
361435300,00000208,false,0,8,00,20,30,00,00,00,40,00
361435600,00000214,false,0,8,00,00,00,00,00,00,03,00
361435800,0000032F,false,0,8,26,11,00,00,00,00,00,00
361436000,00000144,false,0,8,00,00,00,00,00,00,00,00
361436300,0000034A,false,0,8,11,00,01,00,00,00,00,00
361436500,00000215,false,0,8,00,00,00,00,00,00,07,00
361436800,0000022D,false,0,8,01,18,87,FF,00,00,00,00
361437000,00000236,false,0,8,0F,FA,10,00,D0,00,00,4A
361437800,00000289,false,1,8,27,10,4E,20,0D,3C,11,10
361438000,00000732,false,1,8,03,E8,03,E8,64,64,05,3A
361438300,00000733,false,1,8,35,37,35,37,10,B0,A1,37
361438500,00000287,false,1,8,27,10,27,10,27,10,00,00
361438700,00000377,false,1,8,05,B9,00,7B,3A,37,37,22
361438400,0000039A,false,0,8,67,F8,00,00,00,00,00,00
361438600,00000143,false,0,8,00,00,00,1C,08,7D,11,17
361440200,0000028B,false,1,8,27,10,4E,20,0D,3D,01,14
361440400,00000734,false,1,8,03,E8,03,E8,64,64,35,35
361440700,00000735,false,1,8,35,00,35,00,10,B0,A1,36
361440800,00000133,false,0,8,6F,00,00,00,40,00,00,00
361441100,00000145,false,0,8,4E,20,6F,FF,8F,FF,0F,FF
361441300,00000308,false,0,8,00,00,00,00,00,06,CC,00
361441500,000002F1,false,0,8,00,00,15,6B,00,5F,FF,00
361441800,00000312,false,0,8,06,F0,06,F0,08,EF,07,23
361442000,000007BC,false,0,8,10,00,00,00,00,00,00,5E
361441000,00000285,false,1,8,00,00,14,09,91,FE,0C,10
361441700,00000373,false,1,8,B9,B9,7F,7C,0C,58,80,16
361443000,00000362,false,1,8,02,01,00,00,00,00,00,00
361443300,00000288,false,1,8,27,10,4E,20,0D,3B,01,10
361443500,0000075A,false,1,8,03,E8,03,E8,64,64,36,37
361443800,0000075B,false,1,8,35,00,35,00,10,B2,A1,37
361442400,0000022A,false,0,8,00,18,84,00,04,00,04,00
361442900,00000315,false,0,8,78,02,00,00,00,00,71,01
361443200,000006FF,false,0,8,4D,01,0A,96,60,00,00,00
361443400,0000035A,false,0,8,00,80,80,80,80,00,0C,00
361444800,00000229,false,0,8,08,67,D0,3F,FF,14,00,00
361445100,00000300,false,0,8,00,00,83,80,9F,FF,7F,F4
361445300,00000328,false,0,8,00,00,83,00,D0,00,00,B8
361445600,00000330,false,0,8,0D,00,00,00,FF,FF,3F,80
361446000,00000210,false,0,8,00,00,00,80,C0,07,D0,FF
361446200,00000366,false,0,8,11,07,00,00,00,00,00,00
361446400,00000236,false,0,8,0F,FA,10,00,E0,00,00,62
361446700,00000520,false,0,8,00,00,00,00,00,00,00,00
361447700,00000289,false,1,8,27,10,4E,20,0D,3C,11,10
361448000,0000029A,false,1,8,01,32,57,4B,5A,30,30,30
361448300,000006FD,false,0,8,01,8B,22,41,10,04,C8,18
361448500,00000143,false,0,8,00,00,00,1C,08,7D,11,17
361448800,00000418,false,0,8,50,FF,FF,00,00,00,00,01
361448400,00000287,false,1,8,27,10,27,10,27,10,00,00
361448700,0000038A,false,1,8,39,36,00,00,04,00,00,00
361450100,0000028B,false,1,8,27,10,4E,20,0D,3D,01,14
361450800,00000133,false,0,8,6F,00,03,00,40,00,00,00
361451000,00000145,false,0,8,4E,20,6F,FF,8F,FF,0F,FF
361451300,00000308,false,0,8,00,00,00,40,01,66,CC,00
361450900,00000285,false,1,8,00,00,14,09,91,FE,0C,10
361451700,00000373,false,1,8,B9,B9,7F,7C,0C,58,80,16
361451500,00000346,false,0,8,27,10,29,24,00,01,08,64
361451800,000002E1,false,0,8,00,00,00,9F,FF,00,00,00
361452000,00000312,false,0,8,66,F0,06,F0,08,EF,07,23
361452300,0000030C,false,0,8,00,00,00,00,00,00,00,00
361452500,00000608,false,0,8,36,40,00,00,00,00,00,00
361453000,00000288,false,1,8,27,10,4E,20,0D,3B,01,10
361453200,00000362,false,1,8,02,01,00,00,00,00,00,00
361453500,00000370,false,1,8,05,BE,00,00,00,00,00,00
361453100,000006FB,false,0,8,01,80,1C,04,83,0A,00,40
361453400,00000359,false,0,8,30,03,7F,80,C0,00,2E,00
361453700,0000035A,false,0,8,00,80,80,80,80,00,0C,00
361454800,00000200,false,0,8,00,03,00,00,C0,00,C0,00
361455000,00000208,false,0,8,00,20,30,00,00,00,40,00
361455300,00000214,false,0,8,00,00,00,00,00,00,03,00
361455500,0000032F,false,0,8,C1,12,00,00,00,00,00,00
361455900,00000215,false,0,8,00,00,00,00,00,00,07,00
361456200,00000236,false,0,8,0F,FA,10,00,F0,00,00,7A
361456700,00000374,false,1,8,81,82,6E,FE,3E,3C,3F,30
361457300,0000022D,false,0,8,01,00,47,FF,00,00,00,00
361457700,00000289,false,1,8,27,10,4E,20,0D,3C,11,10
361458000,00000566,false,1,8,22,8A,0A,A0,A8,A0,AA,8A
361458300,00000732,false,1,8,03,E8,03,E8,64,64,05,3A
361458500,00000287,false,1,8,27,10,27,10,27,10,00,00
361458800,00000377,false,1,8,05,B9,00,7B,3A,37,37,22
361458300,000005FE,false,0,8,41,28,D5,15,20,18,08,6B
361458500,00000143,false,0,8,00,00,00,04,08,7D,11,17
361460100,0000028B,false,1,8,27,10,4E,20,0D,3D,01,14
361460400,0000056A,false,1,8,22,8A,0A,A0,A8,A0,AA,8A
361460700,00000734,false,1,8,03,E8,03,E8,64,64,35,35
361460800,00000133,false,0,8,6F,00,03,00,40,00,00,00
361461000,00000145,false,0,8,4E,20,AF,FF,8F,FF,0F,FF
361461200,00000308,false,0,8,00,00,00,40,01,66,CC,00
361461500,000002F1,false,0,8,00,00,15,70,00,5F,FF,00
361461700,00000312,false,0,8,66,F0,06,F0,08,EF,07,23
361462000,000007BC,false,0,8,11,00,00,00,00,00,62,00
361460900,00000285,false,1,8,00,00,14,09,91,FE,0C,10
361461700,00000373,false,1,8,B9,B9,7F,7C,0C,58,80,16
361462400,0000022A,false,0,8,00,18,84,00,04,00,04,00
361463000,00000315,false,0,8,3C,02,00,00,00,00,71,01
361463400,0000035A,false,0,8,00,80,80,80,80,00,00,00
361463000,00000288,false,1,8,27,10,4E,20,0D,3B,01,10
361463200,00000362,false,1,8,02,01,00,00,00,00,00,00
361463500,00000564,false,1,8,22,8A,AA,AA,A8,A0,AA,8A
361463700,0000075A,false,1,8,03,E8,03,E8,64,64,36,37
361464800,00000229,false,0,8,08,07,D0,3F,FF,0C,00,00
361465000,00000300,false,0,8,00,80,83,80,1F,FF,7F,F5
361465300,00000328,false,0,8,00,00,83,00,E0,00,00,90
361465500,00000330,false,0,8,15,00,00,00,FF,FF,3F,80
361465900,00000210,false,0,8,00,00,00,80,C0,07,D0,FF
361466200,00000236,false,0,8,0F,FA,10,00,00,00,00,F2
361466800,0000022E,false,0,8,00,00,00,00,00,00,00,00
361466700,00000375,false,1,8,08,08,00,19,28,00,00,00
361467800,00000289,false,1,8,27,10,4E,20,0D,3C,11,10
361468100,00000567,false,1,8,AA,02,00,00,80,AA,00,00
361468400,00000287,false,1,8,27,10,27,10,27,10,00,00
361468600,00000389,false,1,8,9E,00,00,36,36,40,00,00
361468200,00000425,false,0,8,00,21,0A,10,00,00,00,00
361468500,00000143,false,0,8,00,00,00,04,08,7D,11,17
361468700,00000418,false,0,8,50,FF,FF,00,00,00,00,01
361470100,0000028B,false,1,8,27,10,4E,20,0D,3D,01,14
361470400,0000056B,false,1,8,AA,02,00,00,80,AA,00,00
361470900,00000285,false,1,8,00,00,14,09,91,FE,0C,10
361470800,00000133,false,0,8,6F,00,00,00,40,00,00,00
361471000,00000145,false,0,8,4E,20,AF,FF,8F,FF,0F,FF
361471200,00000308,false,0,8,00,00,00,00,00,06,CC,00
361471500,00000346,false,0,8,27,10,29,24,00,01,08,64
361471700,00000188,false,0,8,00,00,FF,FF,00,00,00,00
361472000,000002E1,false,0,8,00,00,80,1F,FF,00,00,00
361471700,00000373,false,1,8,B9,B9,7F,7C,0C,58,80,16
361472000,00000188,false,1,8,00,00,FF,FF,00,00,00,00
361472900,00000362,false,1,8,02,01,00,00,00,00,00,00
361472200,00000312,false,0,8,06,F0,06,F0,08,EF,07,23
361472400,00000415,false,0,7,00,00,00,00,00,00,C8
361473000,00000424,false,0,8,04,91,04,10,00,05,00,00
361473400,00000359,false,0,8,30,03,7F,80,C0,00,2E,00
361473600,0000035A,false,0,8,00,80,80,80,80,00,00,00
361473100,00000288,false,1,8,27,10,4E,20,0D,3B,01,10
361473400,00000424,false,1,8,04,91,04,10,00,05,00,00
361473600,00000565,false,1,8,AA,02,00,00,80,AA,00,00
361473900,00000370,false,1,8,05,BE,00,00,00,00,00,00
361474200,000005A1,false,1,8,2A,A2,AA,2A,A2,8A,82,A2
361474800,00000200,false,0,8,00,03,00,00,00,00,00,00
361475000,00000208,false,0,8,00,20,00,00,00,00,00,00
361475300,00000214,false,0,8,00,00,00,00,00,00,00,00
361475500,0000032F,false,0,8,9C,13,00,00,00,00,00,00
361475900,00000215,false,0,8,00,00,00,00,00,00,04,00
361476200,00000236,false,0,8,0F,FA,10,00,10,00,00,EA
361476700,0000022D,false,0,8,01,00,47,FF,00,00,00,00
361477000,00000347,false,0,8,09,00,00,16,12,00,02,3A
361477700,00000289,false,1,8,27,10,4E,20,0D,3C,11,10
361477900,0000056D,false,1,8,2A,00,00,20,00,00,28,8A
361478200,00000732,false,1,8,03,E8,03,E8,64,64,05,3A
361478400,00000287,false,1,8,27,10,27,10,27,10,00,00
361478600,00000377,false,1,8,05,B9,00,7B,3A,37,37,22
361478300,00000143,false,0,8,00,00,00,1C,08,7D,11,17
361480100,0000028B,false,1,8,27,10,4E,20,0D,3D,01,14
361480400,0000056F,false,1,8,2A,88,2A,28,00,00,28,8A
361480700,00000734,false,1,8,03,E8,03,E8,64,64,35,35
361480700,00000133,false,0,8,6F,00,00,00,40,00,00,00
361480900,00000145,false,0,8,4E,20,6F,FF,8F,FF,0F,FF
361481200,00000308,false,0,8,00,00,00,00,00,06,CC,00
361480900,00000285,false,1,8,00,00,14,09,91,FE,0C,10
361481700,00000373,false,1,8,B9,B9,7F,7C,0C,58,80,16
361481400,000002F1,false,0,8,00,00,15,70,00,9F,FF,00
361481700,00000312,false,0,8,06,F0,06,F0,08,EF,07,23
361481900,000007BC,false,0,8,12,00,00,00,00,00,00,00
361482500,0000022A,false,0,8,00,00,44,00,04,00,04,00
361482900,00000315,false,0,8,00,02,00,00,00,00,71,01
361483000,00000362,false,1,8,02,01,00,00,00,00,00,00
361483200,00000288,false,1,8,27,10,4E,20,0D,3B,01,10
361483500,0000056C,false,1,8,2A,88,02,20,00,00,28,8A
361483300,0000035A,false,0,8,00,80,80,80,80,00,0C,00
361484800,00000207,false,0,8,00,00,00,00,00,00,00,00
361483700,0000075A,false,1,8,03,E8,03,E8,64,64,36,37
361485000,00000207,false,1,8,00,00,00,00,00,00,00,00
361485000,00000229,false,0,8,08,07,D0,3F,FF,0C,00,00
361485300,00000300,false,0,8,00,80,83,80,1F,FF,7F,F9
361485500,00000328,false,0,8,00,00,83,00,00,00,00,00
361485800,00000330,false,0,8,15,00,00,00,FF,FF,3F,80
361486000,00000210,false,0,8,00,00,00,00,40,07,D0,FF
361486300,00000222,false,0,8,00,00,00,00,04,00,00,00
361486500,00000236,false,0,8,0F,FA,10,00,20,00,00,C2
361486800,00000355,false,0,8,00,00,00,00,00,00,00,00
361487700,00000289,false,1,8,27,10,4E,20,0D,3C,11,10
361488300,00000143,false,0,8,00,00,00,1C,08,7D,11,17
361488500,0000039A,false,0,8,67,F8,00,00,00,00,00,00
361488800,00000418,false,0,8,50,FF,FF,00,00,00,00,01
361488300,00000287,false,1,8,27,10,27,10,27,10,00,00
361488600,00000569,false,1,8,AA,82,A2,02,00,00,00,00
361490100,0000028B,false,1,8,27,10,4E,20,0D,3D,01,14
361490800,00000285,false,1,8,00,00,14,09,91,FE,0C,10
361490700,00000133,false,0,8,6F,00,03,00,40,00,00,00
361490900,00000145,false,0,8,4E,20,6F,FF,8F,FF,0F,FF
361491200,00000134,false,0,8,40,00,00,00,00,00,51,08
361491400,00000346,false,0,8,27,10,29,24,00,01,08,64
361491700,00000308,false,0,8,00,00,00,40,01,66,CC,00
361491900,000002E1,false,0,8,00,00,80,1F,FF,00,00,00
361491700,00000373,false,1,8,B9,B9,7F,7C,0C,58,80,16
361492100,00000312,false,0,8,66,F0,06,F0,08,EF,07,23
361493300,00000359,false,0,8,30,03,7F,80,C0,00,2E,00
361493500,0000035A,false,0,8,00,80,80,80,80,00,0C,00
361493000,00000288,false,1,8,27,10,4E,20,0D,3B,01,10
361493200,00000362,false,1,8,02,01,00,00,00,00,00,00
361493500,00000370,false,1,8,05,BE,00,00,00,00,00,00
361494700,00000200,false,0,8,00,03,00,00,40,00,40,00
361495000,00000208,false,0,8,00,20,00,00,00,00,00,00
361495200,00000214,false,0,8,00,00,00,00,00,00,00,00
361495800,00000371,false,1,8,40,00,00,00,00,00,00,00
361495500,0000032F,false,0,8,12,14,00,00,00,00,00,00
361495800,00000215,false,0,8,00,00,00,00,00,00,04,00
361496100,00000520,false,0,8,00,00,00,00,00,00,00,00
361496300,00000236,false,0,8,0F,FA,10,00,30,00,00,DA
361496800,0000022D,false,0,8,01,18,87,FF,00,00,00,00
361497000,00000154,false,0,8,65,65,60,65,0A,07,6C,78
361497300,00000154,false,1,8,65,65,60,65,0A,07,6C,78
361497700,00000289,false,1,8,27,10,4E,20,0D,3C,11,10
361497900,00000299,false,1,8,35,37,3A,3B,35,00,00,00
361498200,00000732,false,1,8,03,E8,03,E8,64,64,05,3A
361498400,00000287,false,1,8,27,10,27,10,27,10,00,00
361498300,00000143,false,0,8,00,00,00,04,08,7D,11,17
361498500,00000387,false,0,8,01,FE,7F,7C,0C,58,3E,3C
361498700,00000377,false,1,8,05,B9,00,7B,3A,37,37,22
361500100,0000028B,false,1,8,27,10,4E,20,0D,3D,01,14
361500300,0000029B,false,1,8,35,36,3F,36,39,0A,14,34
361500600,00000734,false,1,8,03,E8,03,E8,64,64,35,35
361500700,00000133,false,0,8,6F,00,03,00,40,00,00,00
361500900,00000145,false,0,8,4E,20,AF,FF,8F,FF,0F,FF
361501100,00000308,false,0,8,00,00,00,40,01,66,CC,00
361500900,00000285,false,1,8,00,00,14,09,91,FE,0C,10
361501600,00000373,false,1,8,B9,B9,7F,7C,0C,58,80,16
361502100,00000185,false,1,8,00,00,0A,00,00,00,00,00
361501400,000002F1,false,0,8,00,00,15,70,00,9F,FF,00
361501600,00000312,false,0,8,66,F0,06,F0,08,EF,07,23
361501900,00000185,false,0,8,00,00,0A,00,00,00,00,00
361502100,0000030C,false,0,8,00,00,00,00,00,00,00,00
361502400,0000022A,false,0,8,00,00,44,00,04,00,04,00
361502600,00000353,false,0,8,00,00,00,00,00,00,00,00
361502800,0000022B,false,0,8,04,FF,00,00,00,00,00,00
361502900,00000362,false,1,8,02,01,00,00,00,00,00,00
361503200,00000288,false,1,8,27,10,4E,20,0D,3B,01,10
361503400,00000286,false,1,8,00,00,00,36,00,00,0A,00
361503100,00000315,false,0,8,44,02,00,00,00,00,71,01
361503300,00000345,false,0,8,00,00,FF,FF,0F,FF,0F,FF
361503600,000007BC,false,0,8,13,00,00,00,00,00,00,00
361503800,0000035A,false,0,8,00,80,80,80,80,00,00,00
361503600,00000298,false,1,8,35,37,3F,36,39,00,00,34
361503900,0000075A,false,1,8,03,E8,03,E8,64,64,36,37
361504700,00000229,false,0,8,08,67,D0,3F,FF,14,00,00
361505000,00000300,false,0,8,00,00,83,80,9F,FF,7F,F9
361505200,00000328,false,0,8,00,00,83,00,10,00,00,18
361505500,00000330,false,0,8,0D,00,00,00,FF,FF,3F,80
361505800,00000210,false,0,8,00,00,00,00,40,07,D0,FF
361506100,0000038C,false,0,8,66,04,20,40,00,00,00,00
361506300,00000236,false,0,8,0F,FA,10,00,40,00,00,92
361507700,00000289,false,1,8,27,10,4E,20,0D,3C,11,10
361508000,00000566,false,1,8,22,8A,0A,A0,A8,A0,AA,8A
361508300,00000287,false,1,8,27,10,27,10,27,10,00,00
361508200,00000425,false,0,8,00,21,0A,10,00,00,00,00
361508500,00000143,false,0,8,00,00,00,04,08,7D,11,17
361508700,00000418,false,0,8,50,FF,FF,00,00,00,00,01
361508500,00000568,false,1,8,00,02,80,0A,00,00,A8,AA
361510100,0000028B,false,1,8,27,10,4E,20,0D,3D,01,14
361510300,0000056A,false,1,8,22,8A,0A,A0,A8,A0,AA,8A
361510800,00000285,false,1,8,00,00,14,09,91,FE,0C,10
361510700,00000133,false,0,8,6F,00,00,00,40,00,00,00
361510900,00000145,false,0,8,4E,20,AF,FF,8F,FF,0F,FF
361511200,00000308,false,0,8,00,00,00,00,00,06,CC,00
361511400,00000346,false,0,8,27,10,29,24,00,01,08,64
361511700,000002E1,false,0,8,00,00,00,9F,FF,00,00,00
361511900,00000312,false,0,8,06,F0,06,F0,08,EF,07,23
361511600,00000373,false,1,8,B9,B9,7F,7C,0C,58,80,16
361512800,00000362,false,1,8,02,01,00,00,00,00,00,00
361512900,00000424,false,0,8,04,91,04,10,00,05,00,00
361513300,00000359,false,0,8,30,03,7F,80,C0,00,2E,00
361513500,0000035A,false,0,8,00,80,80,80,80,00,00,00
361513000,00000288,false,1,8,27,10,4E,20,0D,3B,01,10
361513300,00000424,false,1,8,04,91,04,10,00,05,00,00
361513500,00000564,false,1,8,22,8A,AA,AA,A8,A0,AA,8A
361513700,00000370,false,1,8,05,BE,00,00,00,00,00,00
361514700,00000200,false,0,8,00,03,00,00,80,00,80,00
361515000,00000208,false,0,8,00,20,30,00,00,00,40,00
361515200,00000214,false,0,8,00,00,00,00,00,00,03,00
361515600,0000032F,false,0,8,4F,15,00,00,00,00,00,00
361515700,00000101,false,0,1,84
361516000,00000215,false,0,8,00,00,00,00,00,00,07,00
361516200,00000236,false,0,8,0F,FA,10,00,50,00,00,8A
361517000,0000022D,false,0,8,01,18,87,FF,00,00,00,00
361517600,00000289,false,1,8,27,10,4E,20,0D,3C,11,10
361517900,00000567,false,1,8,AA,02,00,00,80,AA,00,00
361518200,00000732,false,1,8,03,E8,03,E8,64,64,05,3A
361518200,00000143,false,0,8,00,00,00,1C,08,7D,11,17
361518500,00000390,false,0,8,08,00,FF,FF,FE,00,00,00
361518400,00000287,false,1,8,27,10,27,10,27,10,00,00
361518700,00000377,false,1,8,05,B9,00,7B,3A,37,37,22
361520100,0000028B,false,1,8,27,10,4E,20,0D,3D,01,14
361520300,0000056B,false,1,8,AA,02,00,00,80,AA,00,00
361520600,00000734,false,1,8,03,E8,03,E8,64,64,35,35
361520600,00000133,false,0,8,6F,00,00,00,40,00,00,00
361520800,00000145,false,0,8,4E,20,6F,FF,8F,FF,0F,FF
361521100,00000308,false,0,8,00,00,00,00,00,06,CC,00
361521300,000002F1,false,0,8,00,00,15,70,00,5F,FF,00
361521600,00000312,false,0,8,06,F0,06,F0,08,EF,07,23
361521800,00000348,false,0,8,7F,FE,FF,FE,00,00,FF,FE
361520900,00000285,false,1,8,00,00,14,09,91,FE,0C,10
361521600,00000373,false,1,8,B9,B9,7F,7C,0C,58,80,16
361522900,00000362,false,1,8,02,01,00,00,00,00,00,00
361522100,000007BC,false,0,8,14,00,00,00,00,00,00,00
361522600,0000022A,false,0,8,00,18,84,00,04,00,04,00
361522900,00000315,false,0,8,48,02,00,00,00,00,70,01
361523200,0000032D,false,0,8,A0,4E,20,4E,20,33,19,00
361523500,0000035A,false,0,8,00,80,80,80,80,00,0C,00
361523200,00000288,false,1,8,27,10,4E,20,0D,3B,01,10
361523400,00000565,false,1,8,AA,02,00,00,80,AA,00,00
361523700,0000075A,false,1,8,03,E8,03,E8,64,64,36,37
361524100,000005A1,false,1,8,2A,A2,AA,2A,A2,8A,82,A2
361524700,00000229,false,0,8,08,67,D0,3F,FF,14,00,00
361525000,00000300,false,0,8,00,00,83,80,9F,FF,7F,F8
361525200,00000328,false,0,8,00,00,83,00,20,00,00,30
361525500,00000330,false,0,8,0D,00,00,00,FF,FF,3F,80
361525700,00000210,false,0,8,00,00,00,80,C0,07,D0,FF
361526000,000004A0,false,0,8,FF,FF,33,33,FF,FF,FF,00
361526200,00000236,false,0,8,0F,FA,10,00,60,00,00,A2
361527600,00000289,false,1,8,27,10,4E,20,0D,3C,11,10
361527900,0000056D,false,1,8,2A,00,00,20,00,00,28,8A
361528200,00000143,false,0,8,00,00,00,1C,08,7D,11,17
361528400,00000418,false,0,8,50,FF,FF,00,00,00,00,01
361528200,00000287,false,1,8,27,10,27,10,27,10,00,00
361528400,00000563,false,1,8,AA,AA,AA,AA,A2,2A,00,00
361530000,0000028B,false,1,8,27,10,4E,20,0D,3D,01,14
361530300,0000056F,false,1,8,2A,88,2A,28,00,00,28,8A
361530700,00000285,false,1,8,00,00,14,09,91,FE,0C,10
361530600,00000133,false,0,8,6F,00,03,00,40,00,00,00
361530800,00000145,false,0,8,4E,20,6F,FF,8F,FF,0F,FF
361531100,00000308,false,0,8,00,00,00,40,01,66,CC,00
361531300,00000346,false,0,8,27,10,29,24,00,01,08,64
361531500,00000312,false,0,8,66,F0,06,F0,08,EF,07,23
361531800,000002E1,false,0,8,00,00,00,9F,FF,00,00,00
361531600,00000373,false,1,8,B9,B9,7F,7C,0C,58,80,16
361532300,000006FA,false,1,8,02,38,36,37,00,00,00,00
361532900,00000288,false,1,8,27,10,4E,20,0D,3B,01,10
361532000,000006FA,false,0,8,02,38,36,37,00,00,00,00
361533200,00000359,false,0,8,30,03,7F,80,C0,00,2E,00
361533400,0000035A,false,0,8,00,80,80,80,80,00,0C,00
361533100,00000362,false,1,8,02,01,00,00,00,00,00,00
361533400,00000370,false,1,8,05,BE,00,00,00,00,00,00
361533600,0000056C,false,1,8,2A,88,02,20,00,00,28,8A
361534400,00000388,false,1,8,01,00,00,00,00,00,00,02
361534700,00000388,false,0,8,01,00,00,00,00,00,00,02
361534900,00000200,false,0,8,00,03,00,00,C0,00,C0,00
361535200,00000208,false,0,8,00,20,30,00,00,00,40,00
361535400,00000214,false,0,8,00,00,00,00,00,00,03,00
361535700,00000144,false,0,8,00,00,00,00,00,00,00,00
361535900,0000032F,false,0,8,A8,16,00,00,00,00,00,00
361536200,00000215,false,0,8,00,00,00,00,00,00,07,00
361536400,00000236,false,0,8,0F,FA,10,00,70,00,00,BA
361536700,0000034A,false,0,8,11,00,01,00,00,00,00,00
361536900,0000022D,false,0,8,01,00,47,FF,00,00,00,00
361538200,00000143,false,0,8,00,00,00,04,08,7D,11,17
361537600,00000289,false,1,8,27,10,4E,20,0D,3C,11,10
361537900,00000732,false,1,8,03,E8,03,E8,64,64,05,3A
361538100,00000733,false,1,8,35,37,35,37,10,B0,A1,37
361538400,00000287,false,1,8,27,10,27,10,27,10,00,00
361538600,00000377,false,1,8,05,B9,00,7B,3A,37,37,22
361538400,0000039A,false,0,8,67,F8,00,00,00,00,00,00
361540000,0000028B,false,1,8,27,10,4E,20,0D,3D,01,14
361540300,00000734,false,1,8,03,E8,03,E8,64,64,35,35
361540600,00000735,false,1,8,35,00,35,00,10,B0,A1,36
361540500,00000133,false,0,8,6F,00,03,00,40,00,00,00
361540800,00000145,false,0,8,4E,20,AF,FF,8F,FF,0F,FF
361541000,00000308,false,0,8,00,00,00,40,01,66,CC,00
361541300,000002F1,false,0,8,00,00,15,6B,00,5F,FF,00
361541500,00000312,false,0,8,66,F0,06,F0,08,EF,07,23
361541700,000007BC,false,0,8,15,00,00,00,00,00,00,00
361540800,00000285,false,1,8,00,00,14,09,91,FE,0C,10
361541600,00000373,false,1,8,B9,B9,7F,7C,0C,58,80,16
361542900,00000362,false,1,8,02,01,00,00,00,00,00,00
361543100,00000288,false,1,8,27,10,4E,20,0D,3B,01,10
361542300,0000022A,false,0,8,00,18,84,00,04,00,04,00
361542800,00000315,false,0,8,0C,02,00,00,00,00,71,01
361543200,0000035A,false,0,8,00,80,80,80,80,00,00,00
361543400,0000075A,false,1,8,03,E8,03,E8,64,64,36,37
361543600,0000075B,false,1,8,35,00,35,00,10,B2,A1,37
361544700,00000229,false,0,8,08,07,D0,3F,FF,0C,00,00
361545000,00000300,false,0,8,00,80,83,80,1F,FF,7F,F6
361545200,00000328,false,0,8,00,00,83,00,30,00,00,28
361545400,00000330,false,0,8,15,00,00,00,FF,FF,3F,80
361545700,00000210,false,0,8,00,00,00,80,C0,07,D0,FF
361546000,00000520,false,0,8,00,00,00,00,00,00,00,00
361546200,00000236,false,0,8,0F,FA,10,00,80,00,00,32
361546500,00000366,false,0,8,11,07,00,00,00,00,00,00
361547600,00000289,false,1,8,27,10,4E,20,0D,3C,11,10
361547900,0000029A,false,1,8,02,38,36,37,FF,FF,FF,FF
361548200,00000287,false,1,8,27,10,27,10,27,10,00,00
361548100,00000425,false,0,8,00,21,0A,10,00,00,00,00
361548300,00000143,false,0,8,00,00,00,04,08,7D,11,17
361548600,00000418,false,0,8,50,FF,FF,00,00,00,00,01
361548400,0000038A,false,1,8,39,36,00,00,04,00,00,00
361550000,0000028B,false,1,8,27,10,4E,20,0D,3D,01,14
361550500,00000133,false,0,8,6F,00,00,00,40,00,00,00
361550800,00000145,false,0,8,4E,20,AF,FF,8F,FF,0F,FF
361551000,00000308,false,0,8,00,00,00,00,00,06,CC,00
361550600,00000285,false,1,8,00,00,14,09,91,FE,0C,10
361551600,00000373,false,1,8,B9,B9,7F,7C,0C,58,80,16
361551200,00000346,false,0,8,27,10,29,24,00,01,08,64
361551500,00000312,false,0,8,06,F0,06,F0,08,EF,07,23
361551700,000002E1,false,0,8,00,00,80,1F,FF,00,00,00
361552000,00000608,false,0,8,36,40,00,00,00,00,00,00
361552200,0000030C,false,0,8,00,00,00,00,00,00,00,00
361552900,00000424,false,0,8,04,91,04,10,00,05,00,00
361553200,00000359,false,0,8,30,03,7F,80,C0,00,2E,00
361553400,0000035A,false,0,8,00,80,80,80,80,00,00,00
361552800,00000362,false,1,8,02,01,00,00,00,00,00,00
361553000,00000288,false,1,8,27,10,4E,20,0D,3B,01,10
361553300,00000370,false,1,8,05,BE,00,00,00,00,00,00
361553500,00000424,false,1,8,04,91,04,10,00,05,00,00
361554700,00000200,false,0,8,00,03,00,00,00,00,00,00
361554900,00000208,false,0,8,00,20,00,00,00,00,00,00
361555200,00000214,false,0,8,00,00,00,00,00,00,00,00
361555600,00000215,false,0,8,00,00,00,00,00,00,04,00
361555900,0000032F,false,0,8,F5,17,00,00,00,00,00,00
361556100,00000236,false,0,8,0F,FA,10,00,90,00,00,2A
361557200,0000022D,false,0,8,01,00,47,FF,00,00,00,00
361556600,00000374,false,1,8,81,82,6E,FE,3E,3C,3F,30
361557600,00000289,false,1,8,27,10,4E,20,0D,3C,11,10
361557800,00000566,false,1,8,22,8A,0A,A0,A8,A0,AA,8A
361558100,00000143,false,0,8,00,00,00,1C,08,7D,11,17
361558100,00000732,false,1,8,03,E8,03,E8,64,64,05,3A
361558300,00000287,false,1,8,27,10,27,10,27,10,00,00
361558600,00000377,false,1,8,05,B9,00,7B,3A,37,37,22
361560000,0000028B,false,1,8,27,10,4E,20,0D,3D,01,14
361560300,0000056A,false,1,8,22,8A,0A,A0,A8,A0,AA,8A
361560600,00000734,false,1,8,03,E8,03,E8,64,64,35,35
361560800,00000285,false,1,8,00,00,14,09,91,FE,0C,10
361560500,00000133,false,0,8,6F,00,00,00,40,00,00,00
361560700,00000145,false,0,8,4E,20,6F,FF,8F,FF,0F,FF
361561000,00000308,false,0,8,00,00,00,00,00,06,CC,00
361561200,00000312,false,0,8,06,F0,06,F0,08,EF,07,23
361561500,000002F1,false,0,8,00,00,15,6C,00,DF,FF,00
361561700,000007BC,false,0,8,16,00,00,00,00,00,00,00
361561600,00000373,false,1,8,B9,B9,7F,7C,0C,58,80,16
361562700,00000288,false,1,8,27,10,4E,20,0D,3B,01,10
361562300,0000022A,false,0,8,00,00,44,00,04,00,04,00
361562900,00000315,false,0,8,50,02,00,00,00,00,71,01
361563200,0000035A,false,0,8,00,80,80,80,80,00,0C,00
361563000,00000362,false,1,8,02,01,00,00,00,00,00,00
361563200,00000564,false,1,8,22,8A,AA,AA,A8,A0,AA,8A
361563500,0000075A,false,1,8,03,E8,03,E8,64,64,36,37
361563400,000006F1,false,0,8,F5,0C,02,0B,5C,04,10,53
361564700,00000229,false,0,8,08,07,D0,3F,FF,0C,00,00
361564900,00000300,false,0,8,00,80,83,80,1F,FF,7F,F6
361565200,00000328,false,0,8,00,00,83,00,40,00,00,60
361565400,00000330,false,0,8,15,00,00,00,FF,FF,3F,80
361565700,00000210,false,0,8,00,00,00,00,40,07,D0,FF
361566100,00000236,false,0,8,0F,FA,10,00,A0,00,00,02
361566500,0000022E,false,0,8,00,00,00,00,00,00,00,00
361566600,00000375,false,1,8,08,08,00,19,28,00,00,00
361567600,00000289,false,1,8,27,10,4E,20,0D,3C,11,10
361567900,00000567,false,1,8,AA,02,00,00,80,AA,00,00
361567900,000006F3,false,0,8,99,01,68,0A,02,11,06,33
361568100,00000143,false,0,8,00,00,00,1C,08,7D,11,17
361568400,00000418,false,0,8,50,FF,FF,00,00,00,00,01
361568100,00000287,false,1,8,27,10,27,10,27,10,00,00
361568400,00000389,false,1,8,9E,00,00,36,36,40,00,00
361570000,0000028B,false,1,8,27,10,4E,20,0D,3D,01,14
361570300,0000056B,false,1,8,AA,02,00,00,80,AA,00,00
361570600,00000285,false,1,8,00,00,14,09,91,FE,0C,10
361570500,00000133,false,0,8,6F,00,03,00,40,00,00,00
361570700,00000145,false,0,8,4E,20,6F,FF,8F,FF,0F,FF
361571000,00000308,false,0,8,00,00,00,40,01,66,CC,00
361571200,00000346,false,0,8,27,10,29,24,00,01,08,64
361571400,00000312,false,0,8,66,F0,06,F0,08,EF,07,23
361571700,00000188,false,0,8,00,00,FF,FF,00,00,00,00
361571500,00000373,false,1,8,B9,B9,7F,7C,0C,58,80,16
361571900,00000188,false,1,8,00,00,FF,FF,00,00,00,00
361571900,000002E1,false,0,8,00,00,80,1F,FF,00,00,00
361572100,00000415,false,0,7,00,00,00,00,00,00,C8
361573000,00000359,false,0,8,30,03,7F,80,C0,00,2E,00
361572800,00000288,false,1,8,27,10,4E,20,0D,3B,01,10
361573100,00000362,false,1,8,02,01,00,00,00,00,00,00
361573300,00000370,false,1,8,05,BE,00,00,00,00,00,00
361573300,0000035A,false,0,8,00,80,80,80,80,00,0C,00
361573600,00000565,false,1,8,AA,02,00,00,80,AA,00,00
361574000,000005A1,false,1,8,2A,A2,AA,2A,A2,8A,82,A2
361574600,00000200,false,0,8,00,03,00,00,40,00,40,00
361574900,00000208,false,0,8,00,20,00,00,00,00,00,00
361575100,00000214,false,0,8,00,00,00,00,00,00,00,00
361575600,00000215,false,0,8,00,00,00,00,00,00,04,00
361576000,0000032F,false,0,8,A9,18,00,00,00,00,00,00
361576200,00000236,false,0,8,0F,FA,10,00,B0,00,00,1A
361576900,00000347,false,0,8,09,00,00,16,12,00,02,3A
361577600,0000022D,false,0,8,01,18,87,FF,00,00,00,00
361578000,00000143,false,0,8,00,00,00,04,08,7D,11,17
361577600,00000289,false,1,8,27,10,4E,20,0D,3C,11,10
361577900,0000056D,false,1,8,2A,00,00,20,00,00,28,8A
361578100,00000287,false,1,8,27,10,27,10,27,10,00,00
361578300,00000732,false,1,8,03,E8,03,E8,64,64,05,3A
361578600,00000377,false,1,8,05,B9,00,7B,3A,37,37,22
361580400,00000133,false,0,8,6F,00,03,00,40,00,00,00
361580700,00000145,false,0,8,4E,20,AF,FF,8F,FF,0F,FF
361580900,00000308,false,0,8,00,00,00,40,01,66,CC,00
361580000,0000028B,false,1,8,27,10,4E,20,0D,3D,01,14
361580200,0000056F,false,1,8,2A,88,2A,28,00,00,28,8A
361580500,00000734,false,1,8,03,E8,03,E8,64,64,35,35
361580800,00000285,false,1,8,00,00,14,09,91,FE,0C,10
361581500,00000373,false,1,8,B9,B9,7F,7C,0C,58,80,16
361581100,00000312,false,0,8,66,F0,06,F0,08,EF,07,23
361581400,000002F1,false,0,8,00,00,15,6F,00,DF,FF,00
361581600,000007BC,false,0,8,17,00,00,00,00,00,00,00
361582200,0000022A,false,0,8,00,00,44,00,04,00,04,00
361582600,000006F4,false,0,8,69,29,20,01,1D,00,00,00
361582900,00000315,false,0,8,14,02,00,00,00,00,71,01
361583100,0000035A,false,0,8,00,80,80,80,80,00,00,00
361582800,00000362,false,1,8,02,01,00,00,00,00,00,00
361583000,00000288,false,1,8,27,10,4E,20,0D,3B,01,10
361583300,0000056C,false,1,8,2A,88,02,20,00,00,28,8A
361583600,0000075A,false,1,8,03,E8,03,E8,64,64,36,37
361584700,00000207,false,0,8,00,00,00,00,00,00,0C,00
361584900,00000229,false,0,8,08,67,D0,3F,FF,14,00,00
361585100,00000300,false,0,8,00,00,83,80,9F,FF,7F,F4
361584900,00000207,false,1,8,00,00,00,00,00,00,0C,00
361585400,00000328,false,0,8,00,00,83,00,50,00,00,78
361585600,00000210,false,0,8,00,00,00,00,40,07,D0,FF
361585900,00000330,false,0,8,0D,00,00,00,FF,FF,3F,80
361586100,00000236,false,0,8,0F,FA,10,00,C0,00,00,52
361587300,00000222,false,0,8,00,00,00,00,04,00,00,00
361588000,00000143,false,0,8,00,00,00,04,08,7D,11,17
361587500,00000289,false,1,8,27,10,4E,20,0D,3C,11,10
361588000,00000287,false,1,8,27,10,27,10,27,10,00,00
361588200,00000425,false,0,8,00,21,0A,10,00,00,00,00
361588500,00000418,false,0,8,50,FF,FF,00,00,00,00,01
361588700,0000039A,false,0,8,67,F8,00,00,00,00,00,00
361590000,0000028B,false,1,8,27,10,4E,20,0D,3D,01,14
361590500,00000285,false,1,8,00,00,14,09,91,FE,0C,10
361590400,00000133,false,0,8,6F,00,00,00,40,00,00,00
361590700,00000145,false,0,8,4E,20,AF,FF,8F,FF,0F,FF
361590900,00000134,false,0,8,40,00,00,00,00,00,51,08
361591100,00000346,false,0,8,27,10,29,24,00,01,08,64
361591400,00000308,false,0,8,00,00,00,00,00,06,CC,00
361591500,00000373,false,1,8,B9,B9,7F,7C,0C,58,80,16
361591600,000002E1,false,0,8,00,00,00,9F,FF,00,00,00
361591900,00000312,false,0,8,06,F0,06,F0,08,EF,07,23
361592800,00000424,false,0,8,04,91,04,10,00,05,00,00
361592600,00000362,false,1,8,02,01,00,00,00,00,00,00
361592800,00000288,false,1,8,27,10,4E,20,0D,3B,01,10
361593100,00000424,false,1,8,04,91,04,10,00,05,00,00
361593000,00000359,false,0,8,30,03,7F,80,C0,00,2E,00
361593300,0000035A,false,0,8,00,80,80,80,80,00,00,00
361593300,00000370,false,1,8,05,BE,00,00,00,00,00,00
361594600,00000200,false,0,8,00,03,00,00,80,00,80,00
361594900,00000208,false,0,8,00,20,30,00,00,00,40,00
361595100,00000214,false,0,8,00,00,00,00,00,00,03,00
361595600,00000371,false,1,8,40,00,00,00,00,00,00,00
361595500,00000215,false,0,8,00,00,00,00,00,00,07,00
361595800,00000520,false,0,8,00,00,00,00,00,00,00,00
361596100,00000236,false,0,8,0F,FA,10,00,D0,00,00,4A
361596300,0000032F,false,0,8,F4,19,00,00,00,00,00,00
361596900,00000154,false,0,8,65,65,60,65,0A,07,6C,78
361597100,0000022D,false,0,8,01,18,87,FF,00,00,00,00
361597100,00000154,false,1,8,65,65,60,65,0A,07,6C,78
361597600,00000289,false,1,8,27,10,4E,20,0D,3C,11,10
361597900,00000299,false,1,8,35,37,3A,3B,35,00,00,00
361598000,00000143,false,0,8,00,00,00,1C,08,7D,11,17
361598200,00000387,false,0,8,01,FE,7F,7C,0C,58,3E,3C
361598100,00000287,false,1,8,27,10,27,10,27,10,00,00
361598300,00000732,false,1,8,03,E8,03,E8,64,64,05,3A
361598600,00000377,false,1,8,05,B9,00,7B,3A,37,37,22
361600000,0000028B,false,1,8,27,10,4E,20,0D,3D,01,14
361600200,0000029B,false,1,8,35,36,3F,36,39,0A,14,34
361600500,00000734,false,1,8,03,E8,03,E8,64,64,35,35
361600700,00000285,false,1,8,00,00,14,09,91,FE,0C,10
361600400,00000133,false,0,8,6F,00,00,00,40,00,00,00
361600600,00000145,false,0,8,4E,20,6F,FF,8F,FF,0F,FF
361600900,00000308,false,0,8,00,00,00,00,00,06,CC,00
361601100,00000353,false,0,8,00,00,00,00,00,00,00,00
361601400,000002F1,false,0,8,00,00,15,6F,00,1F,FF,00
361601600,00000185,false,0,8,00,00,0A,00,00,00,00,00
361601500,00000373,false,1,8,B9,B9,7F,7C,0C,58,80,16
361601900,00000185,false,1,8,00,00,0A,00,00,00,00,00
361601900,0000030C,false,0,8,00,00,00,00,00,00,00,00
361602100,00000312,false,0,8,06,F0,06,F0,08,EF,07,23
361602300,0000022A,false,0,8,00,18,84,00,04,00,04,00
361602600,000007BC,false,0,8,18,FE,10,80,40,00,00,00
361602800,0000022B,false,0,8,04,FF,00,00,00,00,00,00
361603100,00000315,false,0,8,18,02,00,00,00,00,71,01
361603300,00000345,false,0,8,00,00,FF,FF,0F,FF,0F,FF
361603500,0000035A,false,0,8,00,80,80,80,80,00,0C,00
361602800,00000362,false,1,8,02,01,00,00,00,00,00,00
361603000,00000286,false,1,8,00,00,00,36,00,00,0A,00
361603300,00000288,false,1,8,27,10,4E,20,0D,3B,01,10
361603500,00000298,false,1,8,35,37,3F,36,39,00,00,34
361603800,0000075A,false,1,8,03,E8,03,E8,64,64,36,37
361604600,00000229,false,0,8,08,67,D0,3F,FF,14,00,00
361604800,00000300,false,0,8,00,00,83,80,9F,FF,7F,F4
361605100,00000328,false,0,8,00,00,83,00,60,00,00,50
361605300,00000330,false,0,8,0D,00,00,00,FF,FF,3F,80
361605600,00000210,false,0,8,00,00,00,80,C0,07,D0,FF
361605800,0000038C,false,0,8,66,04,20,40,00,00,00,00
361606100,00000236,false,0,8,0F,FA,10,00,E0,00,00,62
361607900,00000143,false,0,8,00,00,00,1C,08,7D,11,17
361608200,00000418,false,0,8,50,FF,FF,00,00,00,00,01
361607500,00000289,false,1,8,27,10,4E,20,0D,3C,11,10
361607800,00000566,false,1,8,22,8A,0A,A0,A8,A0,AA,8A
361608000,00000287,false,1,8,27,10,27,10,27,10,00,00
361610000,0000028B,false,1,8,27,10,4E,20,0D,3D,01,14
361610200,0000056A,false,1,8,22,8A,0A,A0,A8,A0,AA,8A
361610400,00000133,false,0,8,6F,00,03,00,40,00,00,00
361610600,00000145,false,0,8,4E,20,6F,FF,8F,FF,0F,FF
361610900,00000308,false,0,8,00,00,00,40,01,66,CC,00
361610500,00000285,false,1,8,00,00,14,09,91,FE,0C,10
361611500,00000373,false,1,8,B9,B9,7F,7C,0C,58,80,16
361611100,00000346,false,0,8,27,10,29,24,00,01,08,64
361611300,00000312,false,0,8,66,F0,06,F0,08,EF,07,23
361611800,000002E1,false,0,8,00,00,00,9F,FF,00,00,00
361612900,00000359,false,0,8,30,03,7F,80,C0,00,2E,00
361613200,0000035A,false,0,8,00,80,80,80,80,00,0C,00
361612800,00000362,false,1,8,02,01,00,00,00,00,00,00
361613000,00000288,false,1,8,27,10,4E,20,0D,3B,01,10
361613300,00000370,false,1,8,05,BE,00,00,00,00,00,00
361613500,00000564,false,1,8,22,8A,AA,AA,A8,A0,AA,8A
361614600,00000200,false,0,8,00,03,00,00,C0,00,C0,00
361614800,00000208,false,0,8,00,20,30,00,00,00,40,00
361615100,00000214,false,0,8,00,00,00,00,00,00,03,00
361615300,00000101,false,0,1,84
361615600,00000215,false,0,8,00,00,00,00,00,00,07,00
361616100,00000236,false,0,8,0F,FA,10,00,F0,00,00,7A
361616300,0000032F,false,0,8,13,1A,00,00,00,00,00,00
361617200,0000022D,false,0,8,01,00,47,FF,00,00,00,00
361617500,00000289,false,1,8,27,10,4E,20,0D,3C,11,10
361617800,00000567,false,1,8,AA,02,00,00,80,AA,00,00
361617900,00000143,false,0,8,00,00,00,04,08,7D,11,17
361618200,00000390,false,0,8,08,00,FF,FF,FE,00,00,00
361618000,00000287,false,1,8,27,10,27,10,27,10,00,00
361618200,00000732,false,1,8,03,E8,03,E8,64,64,05,3A
361618500,00000377,false,1,8,05,B9,00,7B,3A,37,37,22
361619900,0000028B,false,1,8,27,10,4E,20,0D,3D,01,14
361620300,00000133,false,0,8,6F,00,03,00,40,00,00,00
361620600,00000145,false,0,8,4E,20,AF,FF,8F,FF,0F,FF
361620800,00000308,false,0,8,00,00,00,40,01,66,CC,00
361621000,00000348,false,0,8,7F,FE,FF,FE,00,00,FF,FE
361621300,000002F1,false,0,8,00,00,15,6B,00,5F,FF,00
361621500,00000312,false,0,8,66,F0,06,F0,08,EF,07,23
361620200,0000056B,false,1,8,AA,02,00,00,80,AA,00,00
361620500,00000285,false,1,8,00,00,14,09,91,FE,0C,10
361620700,00000734,false,1,8,03,E8,03,E8,64,64,35,35
361621500,00000373,false,1,8,B9,B9,7F,7C,0C,58,80,16
361622700,00000362,false,1,8,02,01,00,00,00,00,00,00
361623000,00000288,false,1,8,27,10,4E,20,0D,3B,01,10
361623200,00000565,false,1,8,AA,02,00,00,80,AA,00,00
361623500,0000075A,false,1,8,03,E8,03,E8,64,64,36,37
361621700,000007BC,false,0,8,19,00,07,61,61,38,A5,00
361622700,0000022A,false,0,8,00,18,84,00,04,00,04,00
361622900,00000315,false,0,8,5C,02,00,00,00,00,71,01
361623200,0000032D,false,0,8,A0,4E,20,4E,20,33,19,00
361623400,0000035A,false,0,8,00,80,80,80,80,00,00,00
361624600,00000229,false,0,8,08,07,D0,3F,FF,0C,00,00
361624900,00000300,false,0,8,00,80,83,80,1F,FF,7F,F3
361624000,000005A1,false,1,8,2A,A2,AA,2A,A2,8A,82,A2
361625100,00000328,false,0,8,00,00,83,00,70,00,00,48
361625400,00000330,false,0,8,15,00,00,00,FF,FF,3F,80
361625600,00000210,false,0,8,00,00,00,80,C0,07,D0,FF
361625800,000004A0,false,0,8,FF,FF,33,33,FF,FF,FF,00
361626100,00000236,false,0,8,0F,FA,10,00,00,00,00,F2
361627900,00000143,false,0,8,00,00,00,04,08,7D,11,17
361628100,00000425,false,0,8,00,21,0A,10,00,00,00,00
361627500,00000289,false,1,8,27,10,4E,20,0D,3C,11,10
361627800,0000056D,false,1,8,2A,00,00,20,00,00,28,8A
361628000,00000287,false,1,8,27,10,27,10,27,10,00,00
361628400,00000418,false,0,8,50,FF,FF,00,00,00,00,01
361630300,00000133,false,0,8,6F,00,00,00,40,00,00,00
361630500,00000145,false,0,8,4E,20,AF,FF,8F,FF,0F,FF
361629900,0000028B,false,1,8,27,10,4E,20,0D,3D,01,14
361630200,0000056F,false,1,8,2A,88,2A,28,00,00,28,8A
361630400,00000285,false,1,8,00,00,14,09,91,FE,0C,10
361630800,00000308,false,0,8,00,00,00,00,00,06,CC,00
361631000,00000346,false,0,8,27,10,29,24,00,01,08,64
361631300,00000312,false,0,8,06,F0,06,F0,08,EF,07,23
361631500,000006FA,false,0,8,00,4A,4D,46,58,44,47,47
361632100,000002E1,false,0,8,00,00,80,1F,FF,00,00,00
361631500,00000373,false,1,8,B9,B9,7F,7C,0C,58,80,16
361631700,000006FA,false,1,8,00,4A,4D,46,58,44,47,47
361632700,00000362,false,1,8,02,01,00,00,00,00,00,00
361632900,00000288,false,1,8,27,10,4E,20,0D,3B,01,10
361633100,00000370,false,1,8,05,BE,00,00,00,00,00,00
361633400,0000056C,false,1,8,2A,88,02,20,00,00,28,8A
361633600,00000424,false,1,8,04,91,04,10,00,05,00,00
361632700,00000424,false,0,8,04,91,04,10,00,05,00,00
361633000,00000359,false,0,8,30,03,7F,80,C0,00,2E,00
361633200,0000035A,false,0,8,00,80,80,80,80,00,00,00
361634500,00000200,false,0,8,00,03,00,00,00,00,00,00
361634300,00000388,false,1,8,01,00,00,00,00,00,00,02
361634800,00000208,false,0,8,00,20,00,00,00,00,00,00
361635000,00000214,false,0,8,00,00,00,00,00,00,00,00
361635300,00000388,false,0,8,01,00,00,00,00,00,00,02
361635500,00000144,false,0,8,00,00,00,00,00,00,00,00
361635800,00000215,false,0,8,00,00,00,00,00,00,04,00
361636000,00000236,false,0,8,0F,FA,10,00,10,00,00,EA
361636400,0000032F,false,0,8,4E,1B,00,00,00,00,00,00
361636700,0000034A,false,0,8,11,00,01,00,00,00,00,00
361637500,00000289,false,1,8,27,10,4E,20,0D,3C,11,10
361637800,00000732,false,1,8,03,E8,03,E8,64,64,05,3A
361638000,00000287,false,1,8,27,10,27,10,27,10,00,00
361637500,0000022D,false,0,8,01,00,47,FF,00,00,00,00
361637900,00000143,false,0,8,00,00,00,1C,08,7D,11,17
361638200,0000039A,false,0,8,67,F8,00,00,00,00,00,00
361638200,00000733,false,1,8,35,37,35,37,10,B0,A1,37
361638500,00000377,false,1,8,05,B9,00,7B,3A,37,37,22
361639900,0000028B,false,1,8,27,10,4E,20,0D,3D,01,14
361640300,00000133,false,0,8,6F,00,00,00,40,00,00,00
361640500,00000145,false,0,8,4E,20,6F,FF,8F,FF,0F,FF
361640800,00000308,false,0,8,00,00,00,00,00,06,CC,00
361640200,00000734,false,1,8,03,E8,03,E8,64,64,35,35
361640400,00000285,false,1,8,00,00,14,09,91,FE,0C,10
361640600,00000735,false,1,8,35,00,35,00,10,B0,A1,36
361641500,00000373,false,1,8,B9,B9,7F,7C,0C,58,80,16
361641000,00000312,false,0,8,06,F0,06,F0,08,EF,07,23
361641200,000002F1,false,0,8,00,00,15,6B,00,9F,FF,00
361641500,000007BC,false,0,8,1A,00,6F,74,07,40,1F,00
361642100,0000022A,false,0,8,00,00,44,00,04,00,04,00
361642700,00000315,false,0,8,60,02,00,00,00,00,71,01
361642900,0000035A,false,0,8,00,80,80,80,80,00,0C,00
361642700,00000362,false,1,8,02,01,00,00,00,00,00,00
361642900,00000288,false,1,8,27,10,4E,20,0D,3B,01,10
361643200,0000075A,false,1,8,03,E8,03,E8,64,64,36,37
361643400,0000075B,false,1,8,35,00,35,00,10,B2,A1,37
361644300,00000676,false,1,8,00,00,00,00,00,00,00,00
361644600,00000229,false,0,8,08,07,D0,3F,FF,0C,00,00
361644800,00000300,false,0,8,00,80,83,80,1F,FF,7F,F3
361645000,00000328,false,0,8,00,00,83,00,80,00,00,C0
361645300,00000330,false,0,8,15,00,00,00,FF,FF,3F,80
361645500,00000210,false,0,8,00,00,00,00,40,07,D0,FF
361645800,00000520,false,0,8,00,00,00,00,00,00,00,00
361646000,00000236,false,0,8,0F,FA,10,00,20,00,00,C2
361647200,00000366,false,0,8,11,07,00,00,00,00,00,00
361647500,00000289,false,1,8,27,10,4E,20,0D,3C,11,10
361647700,0000029A,false,1,8,00,4A,4D,46,58,44,47,47
361647900,00000287,false,1,8,27,10,27,10,27,10,00,00
361647800,00000143,false,0,8,00,00,00,1C,08,7D,11,17
361648100,00000418,false,0,8,50,FF,FF,00,00,00,00,01
361648300,0000038A,false,1,8,39,36,00,00,04,00,00,00
361649900,0000028B,false,1,8,27,10,4E,20,0D,3D,01,14
361650200,00000133,false,0,8,6F,00,03,00,40,00,00,00
361650500,00000145,false,0,8,4E,20,6F,FF,8F,FF,0F,FF
361650700,00000308,false,0,8,00,00,00,40,01,66,CC,00
361650400,00000285,false,1,8,00,00,14,09,91,FE,0C,10
361651400,00000373,false,1,8,B9,B9,7F,7C,0C,58,80,16
361651000,00000346,false,0,8,27,10,29,24,00,01,08,64
361651200,00000312,false,0,8,66,F0,06,F0,08,EF,07,23
361651400,00000608,false,0,8,36,40,00,00,00,00,00,00
361651700,000002E1,false,0,8,00,00,80,1F,FF,00,00,00
361652000,0000030C,false,0,8,00,00,00,00,00,00,00,00
361652800,00000359,false,0,8,30,03,7F,80,C0,00,2E,00
361652700,00000362,false,1,8,02,01,00,00,00,00,00,00
361653000,00000288,false,1,8,27,10,4E,20,0D,3B,01,10
361653200,00000370,false,1,8,05,BE,00,00,00,00,00,00
361653100,0000035A,false,0,8,00,80,80,80,80,00,0C,00
361654500,00000200,false,0,8,00,03,00,00,40,00,40,00
361654300,00000677,false,1,8,00,00,00,00,00,00,00,00
361654800,00000208,false,0,8,00,20,00,00,00,00,00,00
361655000,00000214,false,0,8,00,00,00,00,00,00,00,00
361655400,00000215,false,0,8,00,00,00,00,00,00,04,00
361656000,00000236,false,0,8,0F,FA,10,00,30,00,00,DA
361656600,0000032F,false,0,8,C0,1C,00,00,00,00,00,00
361656400,00000374,false,1,8,81,82,6E,FE,3E,3C,3F,30
361657400,00000289,false,1,8,27,10,4E,20,0D,3C,11,10
361657700,00000566,false,1,8,22,8A,0A,A0,A8,A0,AA,8A
361657300,0000022D,false,0,8,01,18,87,FF,00,00,00,00
361657800,00000143,false,0,8,00,00,00,04,08,7D,11,17
361657900,00000287,false,1,8,27,10,27,10,27,10,00,00
361658100,00000732,false,1,8,03,E8,03,E8,64,64,05,3A
361658400,00000377,false,1,8,05,B9,00,7B,3A,37,37,22
361659900,0000028B,false,1,8,27,10,4E,20,0D,3D,01,14
361660100,0000056A,false,1,8,22,8A,0A,A0,A8,A0,AA,8A
361660400,00000285,false,1,8,00,00,14,09,91,FE,0C,10
361660200,00000133,false,0,8,6F,00,03,00,40,00,00,00
361660400,00000145,false,0,8,4E,20,AF,FF,8F,FF,0F,FF
361660700,00000308,false,0,8,00,00,00,40,01,66,CC,00
361660900,00000312,false,0,8,66,F0,06,F0,08,EF,07,23
361661200,000002F1,false,0,8,00,00,15,69,00,DF,FF,00
361661400,000007BC,false,0,8,1B,00,00,00,07,00,00,00
361660600,00000734,false,1,8,03,E8,03,E8,64,64,35,35
361661400,00000373,false,1,8,B9,B9,7F,7C,0C,58,80,16
361662100,0000022A,false,0,8,00,00,44,00,04,00,04,00
361662700,00000315,false,0,8,24,02,00,00,00,00,71,01
361663000,0000035A,false,0,8,00,80,80,80,80,00,00,00
361662600,00000288,false,1,8,27,10,4E,20,0D,3B,01,10
361662800,00000362,false,1,8,02,01,00,00,00,00,00,00
361663100,00000564,false,1,8,22,8A,AA,AA,A8,A0,AA,8A
361663300,0000075A,false,1,8,03,E8,03,E8,64,64,36,37
361664300,00000571,false,1,8,2A,00,00,00,00,00,00,28
361664500,00000229,false,0,8,08,67,D0,3F,FF,14,00,00
361664800,00000300,false,0,8,00,00,83,80,9F,FF,7F,F3
361665000,00000328,false,0,8,00,00,83,00,90,00,00,D8
361665200,00000330,false,0,8,0D,00,00,00,FF,FF,3F,80
361665500,00000210,false,0,8,00,00,00,00,40,07,D0,FF
361666000,00000236,false,0,8,0F,FA,10,00,40,00,00,92
361666400,00000375,false,1,8,08,08,00,19,28,00,00,00
361666900,0000022E,false,0,8,00,00,00,00,00,00,00,00
361667800,00000143,false,0,8,00,00,00,04,08,7D,11,17
361668000,00000418,false,0,8,50,FF,FF,00,00,00,00,01
361668300,00000425,false,0,8,00,21,0A,10,00,00,00,00
361667500,00000289,false,1,8,27,10,4E,20,0D,3C,11,10
361667800,00000287,false,1,8,27,10,27,10,27,10,00,00
361668100,00000567,false,1,8,AA,02,00,00,80,AA,00,00
361668300,00000389,false,1,8,9E,00,00,36,36,40,00,00
361670200,00000133,false,0,8,6F,00,00,00,40,00,00,00
361670400,00000145,false,0,8,4E,20,AF,FF,8F,FF,0F,FF
361669900,0000028B,false,1,8,27,10,4E,20,0D,3D,01,14
361670100,0000056B,false,1,8,AA,02,00,00,80,AA,00,00
361670400,00000285,false,1,8,00,00,14,09,91,FE,0C,10
361670700,00000308,false,0,8,00,00,00,00,00,06,CC,00
361670900,00000346,false,0,8,27,10,29,24,00,01,08,64
361671100,00000312,false,0,8,06,F0,06,F0,08,EF,07,23
361671400,00000188,false,0,8,00,00,FF,FF,00,00,00,00
361671600,000002E1,false,0,8,00,00,00,9F,FF,00,00,00
361671900,00000415,false,0,7,00,00,00,00,00,00,C8
361671400,00000373,false,1,8,B9,B9,7F,7C,0C,58,80,16
361671700,00000188,false,1,8,00,00,FF,FF,00,00,00,00
361672500,00000362,false,1,8,02,01,00,00,00,00,00,00
361672800,00000424,false,0,8,04,91,04,10,00,05,00,00
361673000,00000359,false,0,8,30,03,7F,80,C0,00,2E,00
361673300,0000035A,false,0,8,00,80,80,80,80,00,00,00
361672800,00000288,false,1,8,27,10,4E,20,0D,3B,01,10
361673000,00000370,false,1,8,05,BE,00,00,00,00,00,00
361673300,00000565,false,1,8,AA,02,00,00,80,AA,00,00
361673500,00000424,false,1,8,04,91,04,10,00,05,00,00
361673900,000005A1,false,1,8,2A,A2,AA,2A,A2,8A,82,A2
361674500,00000200,false,0,8,00,03,00,00,80,00,80,00
361674800,00000208,false,0,8,00,20,30,00,00,00,40,00
361675000,00000214,false,0,8,00,00,00,00,00,00,03,00
361675300,00000215,false,0,8,00,00,00,00,00,00,07,00
361675900,00000236,false,0,8,0F,FA,10,00,50,00,00,8A
361676600,0000032F,false,0,8,9D,1D,00,00,00,00,00,00
361676900,00000347,false,0,8,09,00,00,16,12,00,02,3A
361677600,0000022D,false,0,8,01,18,87,FF,00,00,00,00
361677800,00000143,false,0,8,00,00,00,1C,08,7D,11,17
361677400,00000289,false,1,8,27,10,4E,20,0D,3C,11,10
361677700,0000056D,false,1,8,2A,00,00,20,00,00,28,8A
361677900,00000287,false,1,8,27,10,27,10,27,10,00,00
361678200,00000732,false,1,8,03,E8,03,E8,64,64,05,3A
361678400,00000377,false,1,8,05,B9,00,7B,3A,37,37,22
361679900,0000028B,false,1,8,27,10,4E,20,0D,3D,01,14
361680100,0000056F,false,1,8,2A,88,2A,28,00,00,28,8A
361680200,00000133,false,0,8,6F,00,00,00,40,00,00,00
361680400,00000145,false,0,8,4E,20,6F,FF,8F,FF,0F,FF
361680600,00000308,false,0,8,00,00,00,00,00,06,CC,00
361680400,00000285,false,1,8,00,00,14,09,91,FE,0C,10
361680600,00000734,false,1,8,03,E8,03,E8,64,64,35,35
361681400,00000373,false,1,8,B9,B9,7F,7C,0C,58,80,16
361680900,00000312,false,0,8,06,F0,06,F0,08,EF,07,23
361681100,000002F1,false,0,8,00,00,15,69,00,1F,FF,00
361681400,000007BC,false,0,8,1C,00,00,00,00,00,00,00
361682300,0000022A,false,0,8,00,18,84,00,04,00,04,00
361682600,00000315,false,0,8,28,02,00,00,00,00,71,01
361682600,00000362,false,1,8,02,01,00,00,00,00,00,00
361682900,00000288,false,1,8,27,10,4E,20,0D,3B,01,10
361683100,0000056C,false,1,8,2A,88,02,20,00,00,28,8A
361682900,0000035A,false,0,8,00,80,80,80,80,00,0C,00
361683400,0000075A,false,1,8,03,E8,03,E8,64,64,36,37
361684500,00000207,false,0,8,00,00,00,00,00,00,0C,00
361684800,00000229,false,0,8,08,67,D0,3F,FF,14,00,00
361685000,00000300,false,0,8,00,00,83,80,9F,FF,7F,F3
361685300,00000328,false,0,8,00,00,83,00,A0,00,00,F0
361685500,00000210,false,0,8,00,00,00,80,C0,07,D0,FF
361684800,00000207,false,1,8,00,00,00,00,00,00,0C,00
361685800,00000330,false,0,8,0D,00,00,00,FF,FF,3F,80
361686000,00000236,false,0,8,0F,FA,10,00,60,00,00,A2
361686900,00000222,false,0,8,00,00,00,00,04,00,00,00
361687400,00000289,false,1,8,27,10,4E,20,0D,3C,11,10
361687800,00000287,false,1,8,27,10,27,10,27,10,00,00
361688300,00000569,false,1,8,AA,82,A2,02,00,00,00,00
361687700,00000143,false,0,8,00,00,00,1C,08,7D,11,17
361688000,00000418,false,0,8,50,FF,FF,00,00,00,00,01
361688200,0000039A,false,0,8,67,F8,00,00,00,00,00,00
361690100,00000133,false,0,8,6F,00,03,00,40,00,00,00
361690400,00000145,false,0,8,4E,20,6F,FF,8F,FF,0F,FF
361690600,00000134,false,0,8,20,00,00,00,00,00,51,08
361689800,0000028B,false,1,8,27,10,4E,20,0D,3D,01,14
361690300,00000285,false,1,8,00,00,14,09,91,FE,0C,10
361691400,00000373,false,1,8,B9,B9,7F,7C,0C,58,80,16
361690800,00000346,false,0,8,27,10,29,24,00,01,08,64
361691100,00000308,false,0,8,00,00,00,40,01,66,CC,00
361691300,00000312,false,0,8,66,F0,06,F0,08,EF,07,23
361691900,000002E1,false,0,8,00,00,00,9F,FF,00,00,00
361692700,00000359,false,0,8,30,03,7F,80,C0,00,2E,00
361692600,00000362,false,1,8,02,01,00,00,00,00,00,00
361692900,00000288,false,1,8,27,10,4E,20,0D,3B,01,10
361693100,00000370,false,1,8,05,BE,00,00,00,00,00,00
361693000,0000035A,false,0,8,00,80,80,80,80,00,0C,00
361694500,00000200,false,0,8,00,03,00,00,C0,00,C0,00
361694700,00000208,false,0,8,00,20,30,00,00,00,40,00
361695000,00000214,false,0,8,00,00,00,00,00,00,03,00
361695300,00000371,false,1,8,40,00,00,00,00,00,00,00
361695300,00000215,false,0,8,00,00,00,00,00,00,07,00
361695500,00000520,false,0,8,00,00,00,00,00,00,00,00
361695900,00000236,false,0,8,0F,FA,10,00,70,00,00,BA
361696700,0000032F,false,0,8,7A,1E,00,00,00,00,00,00
361697200,00000154,false,1,8,65,65,60,65,0A,07,6C,78
361697400,00000289,false,1,8,27,10,4E,20,0D,3C,11,10
361697700,00000299,false,1,8,35,37,3A,3B,35,00,00,00
361696900,00000154,false,0,8,65,65,60,65,0A,07,6C,78
361697700,00000143,false,0,8,00,00,00,04,08,7D,11,17
361697900,00000387,false,0,8,01,FE,7F,7C,0C,58,3E,3C
361698200,0000022D,false,0,8,01,00,47,FF,00,00,00,00
361697900,00000287,false,1,8,27,10,27,10,27,10,00,00
361698200,00000732,false,1,8,03,E8,03,E8,64,64,05,3A
361698400,00000377,false,1,8,05,B9,00,7B,3A,37,37,22
361699900,0000028B,false,1,8,27,10,4E,20,0D,3D,01,14
361700100,0000029B,false,1,8,35,36,3F,36,39,0A,13,34
361700300,00000285,false,1,8,00,00,14,09,91,FE,0C,10
361700600,00000734,false,1,8,03,E8,03,E8,64,64,35,35
361700100,00000133,false,0,8,6F,00,03,00,40,00,00,00
361700300,00000145,false,0,8,4E,20,AF,FF,8F,FF,0F,FF
361700600,00000308,false,0,8,00,00,00,40,01,66,CC,00
361700800,00000353,false,0,8,00,00,00,00,00,00,00,00
361701000,00000312,false,0,8,66,F0,06,F0,08,EF,07,23
361701300,000002F1,false,0,8,00,00,15,6B,00,5F,FF,00
361701400,00000373,false,1,8,B9,B9,7F,7C,0C,58,80,16
361701800,00000185,false,1,8,00,00,0A,00,00,00,00,00
361702600,00000362,false,1,8,02,01,00,00,00,00,00,00
361701500,00000185,false,0,8,00,00,0A,00,00,00,00,00
361701800,0000030C,false,0,8,00,00,00,00,00,00,00,00
361702000,000007BC,false,0,8,1D,00,00,01,00,00,00,00
361702300,0000022A,false,0,8,00,18,84,00,04,00,04,00
361702500,0000022B,false,0,8,04,FF,00,00,00,00,00,00
361702800,00000315,false,0,8,6C,02,00,00,00,00,71,01
361703000,00000345,false,0,8,00,00,FF,FF,0F,FF,0F,FF
361703300,0000035A,false,0,8,00,80,80,80,80,00,00,00
361704500,00000229,false,0,8,08,07,D0,3F,FF,0C,00,00
361704700,00000300,false,0,8,00,80,83,80,1F,FF,7F,F3
361704900,00000328,false,0,8,00,00,83,00,B0,00,00,E8
361702800,00000286,false,1,8,00,00,00,36,00,00,0A,00
361703100,00000288,false,1,8,27,10,4E,20,0D,3B,01,10
361703300,00000298,false,1,8,35,37,3F,36,39,00,00,34
361703700,0000075A,false,1,8,03,E8,03,E8,64,64,36,37
361705200,00000330,false,0,8,15,00,00,00,FF,FF,3F,80
361705400,00000210,false,0,8,00,00,00,80,C0,07,D0,FF
361705700,0000038C,false,0,8,66,04,20,40,00,00,00,00
361705900,00000236,false,0,8,0F,FA,10,00,80,00,00,32
361707400,00000289,false,1,8,27,10,4E,20,0D,3C,11,10
361707700,00000566,false,1,8,22,8A,0A,A0,A8,A0,AA,8A
361707900,00000287,false,1,8,27,10,27,10,27,10,00,00
361707700,00000143,false,0,8,00,00,00,04,08,7D,11,17
361707900,00000418,false,0,8,50,FF,FF,00,00,00,00,01
361708200,00000425,false,0,8,00,21,0A,10,00,00,00,00
361708100,00000667,false,1,8,02,00,00,00,00,00,00,00
361708400,00000568,false,1,8,00,02,80,0A,00,00,A8,AA
361709800,0000028B,false,1,8,27,10,4E,20,0D,3D,01,14
361710100,0000056A,false,1,8,22,8A,0A,A0,A8,A0,AA,8A
361710300,00000285,false,1,8,00,00,14,09,91,FE,0C,10
361710100,00000133,false,0,8,6F,00,00,00,40,00,00,00
361710400,00000145,false,0,8,4E,20,AF,FF,8F,FF,0F,FF
361710600,00000308,false,0,8,00,00,00,00,00,06,CC,00
361710800,00000346,false,0,8,27,10,29,24,00,01,08,64
361711100,00000312,false,0,8,06,F0,06,F0,08,EF,07,23
361711300,000002E1,false,0,8,00,00,80,1F,FF,00,00,00
361710600,00000669,false,1,8,02,00,00,00,00,00,00,00
361711400,00000373,false,1,8,B9,B9,7F,7B,0C,58,80,16
361712500,00000362,false,1,8,02,01,00,00,00,00,00,00
361712700,00000288,false,1,8,27,10,4E,20,0D,3B,01,10
361712600,00000359,false,0,8,30,03,7F,80,C0,00,2E,00
361712900,00000424,false,0,8,04,91,04,10,00,05,00,00
361713100,0000035A,false,0,8,00,80,80,80,80,00,00,00
361713000,00000370,false,1,8,05,BE,00,00,00,00,00,00
361713200,00000564,false,1,8,22,8A,AA,AA,A8,A0,AA,8A
361713500,00000424,false,1,8,04,91,04,10,00,05,00,00
361713700,00000665,false,1,8,02,00,00,00,00,00,00,00
361714500,00000200,false,0,8,00,03,00,00,00,00,00,00
361714700,00000208,false,0,8,00,20,00,00,00,00,00,00
361715000,00000214,false,0,8,00,00,00,00,00,00,00,00
361715100,00000101,false,0,1,84
361715300,00000215,false,0,8,00,00,00,00,00,00,04,00
361715900,00000236,false,0,8,0F,FA,10,00,90,00,00,2A
361716800,0000032F,false,0,8,27,1F,00,00,00,00,00,00
361717400,00000289,false,1,8,27,10,4E,20,0D,3C,11,10
361717700,00000567,false,1,8,AA,02,00,00,80,AA,00,00
361717900,00000287,false,1,8,27,10,27,10,27,10,00,00
361717500,0000022D,false,0,8,01,00,47,FF,00,00,00,00
361717700,00000143,false,0,8,00,00,00,1C,08,7D,11,17
361718000,00000390,false,0,8,08,00,FF,FF,FE,00,00,00
361718100,00000732,false,1,8,03,E8,03,E8,64,64,05,3A
361718400,00000377,false,1,8,05,B9,00,7B,3A,38,37,22
361719800,0000028B,false,1,8,27,10,4E,20,0D,3D,01,14
361720100,0000056B,false,1,8,AA,02,00,00,80,AA,00,00
361720300,00000285,false,1,8,00,00,14,09,91,FE,0C,10
361720500,00000734,false,1,8,03,E8,03,E8,64,64,35,35
361720000,00000133,false,0,8,6F,00,00,00,40,00,00,00
361720300,00000145,false,0,8,4E,20,6F,FF,8F,FF,0F,FF
361720500,00000308,false,0,8,00,00,00,00,00,06,CC,00
361720800,00000348,false,0,8,7F,FE,FF,FE,00,00,FF,FE
361721000,00000312,false,0,8,06,F0,06,F0,08,EF,07,23
361721200,000002F1,false,0,8,00,00,15,6F,00,DF,FF,00
361721500,000007BC,false,0,8,1E,00,00,00,00,00,00,00
361722300,0000022A,false,0,8,00,00,44,00,04,00,04,00
361722600,0000032D,false,0,8,A0,4E,20,4E,20,33,19,00
361721400,00000373,false,1,8,B9,B9,7F,7B,0C,58,80,16
361722500,00000288,false,1,8,27,10,4E,20,0D,3B,01,10
361722800,00000362,false,1,8,02,01,00,00,00,00,00,00
361723000,00000565,false,1,8,AA,02,00,00,80,AA,00,00
361723300,0000075A,false,1,8,03,E8,03,E8,64,64,36,37
361723800,000005A1,false,1,8,2A,A2,AA,2A,A2,8A,82,A2
361722900,00000315,false,0,8,30,02,00,00,00,00,71,01
361723100,0000035A,false,0,8,00,80,80,80,80,00,0C,00
361724500,00000229,false,0,8,08,07,D0,3F,FF,0C,00,00
361724700,00000300,false,0,8,00,80,83,80,1F,FF,7F,F3
361724900,00000328,false,0,8,00,00,83,00,C0,00,00,A0
361725200,00000210,false,0,8,00,00,00,00,40,07,D0,FF
361725400,00000330,false,0,8,15,00,00,00,FF,FF,3F,80
361725700,000004A0,false,0,8,FF,FF,33,33,FF,FF,FF,00
361725900,00000236,false,0,8,0F,FA,10,00,A0,00,00,02
361727600,00000143,false,0,8,00,00,00,1C,08,7D,11,17
361727900,00000418,false,0,8,50,FF,FF,00,00,00,00,01
361727400,00000289,false,1,8,27,10,4E,20,0D,3C,11,10
361727600,0000056D,false,1,8,2A,00,00,20,00,00,28,8A
361727900,00000287,false,1,8,27,10,27,10,27,10,00,00
361728100,00000668,false,1,8,02,3D,F2,11,16,00,00,00
361728300,00000563,false,1,8,AA,AA,AA,AA,A2,2A,00,00
361729800,0000028B,false,1,8,27,10,4E,20,0D,3D,01,14
361730100,0000056F,false,1,8,2A,88,2A,28,00,00,28,8A
361730000,00000133,false,0,8,6F,00,03,00,40,00,00,00
361730300,00000145,false,0,8,4E,20,6F,FF,8F,FF,0F,FF
361730500,00000308,false,0,8,00,00,00,40,01,66,CC,00
361730300,00000285,false,1,8,00,00,14,09,91,FE,0C,10
361730500,0000066A,false,1,8,02,4B,E4,87,C8,00,00,00
361731300,00000373,false,1,8,B9,B9,7F,7B,0C,58,80,16
361730700,00000346,false,0,8,27,10,29,24,00,01,08,64
361731000,00000312,false,0,8,66,F0,06,F0,08,EF,07,23
361731200,000006FA,false,0,8,01,32,57,4B,5A,30,30,30
361731500,000002E1,false,0,8,00,00,80,1F,FF,00,00,00
361732600,00000359,false,0,8,30,03,7F,80,C0,00,2E,00
361732800,0000035A,false,0,8,00,80,80,80,80,00,0C,00
361731600,000006FA,false,1,8,01,32,57,4B,5A,30,30,30
361732500,00000362,false,1,8,02,01,00,00,00,00,00,00
361732800,00000288,false,1,8,27,10,4E,20,0D,3B,01,10
361733000,00000370,false,1,8,05,BE,00,00,00,00,00,00
361733200,0000056C,false,1,8,2A,88,02,20,00,00,28,8A
361733500,00000666,false,1,8,02,26,94,74,99,00,00,00
361734200,00000388,false,1,8,01,00,00,00,00,00,00,02
361734400,00000200,false,0,8,00,03,00,00,40,00,40,00
361734700,00000208,false,0,8,00,20,00,00,00,00,00,00
361734900,00000214,false,0,8,00,00,00,00,00,00,00,00
361735200,00000388,false,0,8,01,00,00,00,00,00,00,02
361735400,00000144,false,0,8,00,00,00,00,00,00,00,00
361735700,00000215,false,0,8,00,00,00,00,00,00,04,00
361735900,00000236,false,0,8,0F,FA,10,00,B0,00,00,1A
361736900,0000032F,false,0,8,7B,10,00,00,00,00,00,00
361737200,0000034A,false,0,8,11,00,01,00,00,00,00,00
361737600,00000143,false,0,8,00,00,00,04,08,7D,11,17
361737800,0000022D,false,0,8,01,18,87,FF,00,00,00,00
361737400,00000289,false,1,8,27,10,4E,20,0D,3C,11,10
361737600,00000287,false,1,8,27,10,27,10,27,10,00,00
361737800,00000732,false,1,8,03,E8,03,E8,64,64,05,3A
361738100,00000733,false,1,8,35,37,35,37,10,B0,A1,37
361738300,00000377,false,1,8,05,B9,00,7B,3A,37,37,22
361738100,0000039A,false,0,8,67,F8,00,00,00,00,00,00
361740000,00000133,false,0,8,6F,00,03,00,40,00,00,00
361740200,00000145,false,0,8,4E,20,AF,FF,8F,FF,0F,FF
361739800,0000028B,false,1,8,27,10,4E,20,0D,3D,01,14
361740000,00000734,false,1,8,03,E8,03,E8,64,64,35,35
361740300,00000285,false,1,8,00,00,14,09,91,FE,0C,10
361740500,00000735,false,1,8,35,00,35,00,10,B0,A1,36
361740500,00000308,false,0,8,00,00,00,40,01,66,CC,00
361740700,00000312,false,0,8,66,F0,06,F0,08,EF,07,23
361741000,000002F1,false,0,8,00,00,15,70,00,9F,FF,00
361741300,000007BC,false,0,8,1F,00,00,00,00,00,00,00
361742000,0000022A,false,0,8,00,00,44,00,04,00,04,00
361742600,0000035A,false,0,8,00,80,80,80,80,00,00,00
361741300,00000373,false,1,8,B9,B9,7F,7B,0C,58,80,16
361742500,00000362,false,1,8,02,01,00,00,00,00,00,00
361742700,00000288,false,1,8,27,10,4E,20,0D,3B,01,10
361743000,0000075A,false,1,8,03,E8,03,E8,64,64,36,37
361743200,0000075B,false,1,8,35,00,35,00,10,B2,A1,37
361742800,00000315,false,0,8,74,02,00,00,00,00,71,01
361743100,000006FF,false,0,8,4D,01,0A,96,60,00,00,00
361744400,00000229,false,0,8,08,67,D0,3F,FF,14,00,00
361744700,00000300,false,0,8,00,00,83,80,9F,FF,7F,F3
361744900,00000328,false,0,8,00,00,83,00,D0,00,00,B8
361745200,00000210,false,0,8,00,00,00,00,40,07,D0,FF
361745400,00000330,false,0,8,0D,00,00,00,FF,FF,3F,80
361745700,00000520,false,0,8,00,00,00,00,00,00,00,00
361745900,00000236,false,0,8,0F,FA,10,00,C0,00,00,52
361747100,00000366,false,0,8,11,07,00,00,00,00,00,00
361747300,00000289,false,1,8,27,10,4E,20,0D,3C,11,10
361747600,00000287,false,1,8,27,10,27,10,27,10,00,00
361747800,0000029A,false,1,8,01,32,57,4B,5A,30,30,30
361748200,0000038A,false,1,8,39,36,00,00,04,00,00,00
361747500,00000143,false,0,8,00,00,00,04,08,7D,11,17
361747800,00000418,false,0,8,50,FF,FF,00,00,00,00,01
361748000,00000425,false,0,8,00,21,0A,10,00,00,00,00
361748300,000006FD,false,0,8,01,8B,22,41,10,04,C8,18
361750000,00000133,false,0,8,6F,00,00,00,40,00,00,00
361750200,00000145,false,0,8,4E,20,AF,FF,8F,FF,0F,FF
361750500,00000308,false,0,8,00,00,00,00,00,06,CC,00
361750700,00000346,false,0,8,27,10,29,24,00,01,08,64
361749800,0000028B,false,1,8,27,10,4E,20,0D,3D,01,14
361750100,00000285,false,1,8,00,00,14,09,91,FE,0C,10
361751300,00000373,false,1,8,B9,B9,7F,7B,0C,58,80,16
361750900,00000312,false,0,8,06,F0,06,F0,08,EF,07,23
361751200,00000608,false,0,8,36,40,00,00,00,00,00,00
361751400,000002E1,false,0,8,00,00,00,9F,FF,00,00,00
361751700,0000030C,false,0,8,00,00,00,00,00,00,00,00
361752500,00000359,false,0,8,30,03,7F,80,C0,00,2E,00
361752800,00000424,false,0,8,04,91,04,10,00,05,00,00
361753000,0000035A,false,0,8,00,80,80,80,80,00,00,00
361752300,00000362,false,1,8,02,01,00,00,00,00,00,00
361752600,00000370,false,1,8,05,BE,00,00,00,00,00,00
361752800,00000288,false,1,8,27,10,4E,20,0D,3B,01,10
361753100,00000424,false,1,8,04,91,04,10,00,05,00,00
361753300,000006FB,false,0,8,01,80,1C,04,83,0A,00,40
361754400,00000200,false,0,8,00,03,00,00,80,00,80,00
361754700,00000208,false,0,8,00,20,30,00,00,00,40,00
361754900,00000214,false,0,8,00,00,00,00,00,00,03,00
361755200,00000215,false,0,8,00,00,00,00,00,00,04,00
361755800,00000236,false,0,8,0F,FA,10,00,D0,00,00,4A
361756300,00000374,false,1,8,81,82,6E,FE,3E,3C,3F,30
361757000,0000032F,false,0,8,26,11,00,00,00,00,00,00
361757500,00000143,false,0,8,00,00,00,1C,08,7D,11,17
361757900,0000022D,false,0,8,01,18,87,FF,00,00,00,00
361757300,00000289,false,1,8,27,10,4E,20,0D,3C,11,10
361757600,00000287,false,1,8,27,10,27,10,27,10,00,00
361757800,00000566,false,1,8,22,8A,0A,A0,A8,A0,AA,8A
361758100,00000732,false,1,8,03,E8,03,E8,64,64,05,3A
361758300,00000377,false,1,8,05,B9,00,7B,3A,37,37,22
361758100,000005FE,false,0,8,41,28,D5,15,20,18,08,6B
361759900,00000133,false,0,8,6F,00,00,00,40,00,00,00
361759800,0000028B,false,1,8,27,10,4E,20,0D,3D,01,14
361760000,0000056A,false,1,8,22,8A,0A,A0,A8,A0,AA,8A
361760300,00000285,false,1,8,00,00,14,09,91,FE,0C,10
361760200,00000145,false,0,8,4E,20,6F,FF,8F,FF,0F,FF
361760400,00000308,false,0,8,00,00,00,00,00,06,CC,00
361760600,00000312,false,0,8,06,F0,06,F0,08,EF,07,23
361760900,000007BC,false,0,8,20,00,00,00,00,00,00,00
361761100,000002F1,false,0,8,00,00,15,70,00,5F,FF,00
361760500,00000734,false,1,8,03,E8,03,E8,64,64,35,35
361761300,00000373,false,1,8,B9,B9,7F,7B,0C,58,80,16
361762500,00000362,false,1,8,02,01,00,00,00,00,00,00
361762700,00000288,false,1,8,27,10,4E,20,0D,3B,01,10
361762000,0000022A,false,0,8,00,18,84,00,04,00,04,00
361762500,0000035A,false,0,8,00,80,80,80,80,00,0C,00
361762700,00000315,false,0,8,78,02,00,00,00,00,71,01
361763000,00000564,false,1,8,22,8A,AA,AA,A8,A0,AA,8A
361763200,0000075A,false,1,8,03,E8,03,E8,64,64,36,37
361764400,00000229,false,0,8,08,67,D0,3F,FF,14,00,00
361764700,00000300,false,0,8,00,00,83,80,9F,FF,7F,F3
361764900,00000328,false,0,8,00,00,83,00,E0,00,00,90
361765100,00000210,false,0,8,00,00,00,80,C0,07,D0,FF
361765400,00000330,false,0,8,0D,00,00,00,FF,FF,3F,80
361765800,00000236,false,0,8,0F,FA,10,00,E0,00,00,62
361766300,00000375,false,1,8,08,08,00,19,28,00,00,00
361767400,00000289,false,1,8,27,10,4E,20,0D,3C,11,10
361767500,00000143,false,0,8,00,00,00,1C,08,7D,11,17
361767700,0000022E,false,0,8,00,00,00,00,00,00,00,00
361768000,00000418,false,0,8,50,FF,FF,00,00,00,00,01
361767600,00000287,false,1,8,27,10,27,10,27,10,00,00
361767800,00000567,false,1,8,AA,02,00,00,80,AA,00,00
361768200,00000389,false,1,8,9E,00,00,36,36,40,00,00
361769900,00000133,false,0,8,6F,00,03,00,40,00,00,00
361770100,00000145,false,0,8,4E,20,6F,FF,8F,FF,0F,FF
361770400,00000308,false,0,8,00,00,00,40,01,66,CC,00
361770600,00000346,false,0,8,27,10,29,24,00,01,08,64
361770800,00000312,false,0,8,66,F0,06,F0,08,EF,07,23
361771100,00000415,false,0,7,00,00,00,00,00,00,C8
361769800,0000028B,false,1,8,27,10,4E,20,0D,3D,01,14
361770000,0000056B,false,1,8,AA,02,00,00,80,AA,00,00
361770300,00000285,false,1,8,00,00,14,09,91,FE,0C,10
361771300,00000373,false,1,8,B9,B9,7F,7B,0C,58,80,16
361771600,00000188,false,1,8,00,00,FF,FF,00,00,00,00
361772500,00000362,false,1,8,02,01,00,00,00,00,00,00
361772700,00000288,false,1,8,27,10,4E,20,0D,3B,01,10
361771300,00000188,false,0,8,00,00,FF,FF,00,00,00,00
361771600,000002E1,false,0,8,00,00,00,9F,FF,00,00,00
361772500,00000359,false,0,8,30,03,7F,80,C0,00,2E,00
361772700,0000035A,false,0,8,00,80,80,80,80,00,0C,00
361774400,00000200,false,0,8,00,03,00,00,C0,00,C0,00
361773000,00000370,false,1,8,05,BE,00,00,00,00,00,00
361773200,00000565,false,1,8,AA,02,00,00,80,AA,00,00
361773800,000005A1,false,1,8,2A,A2,AA,2A,A2,8A,82,A2
361774600,00000208,false,0,8,00,20,30,00,00,00,40,00
361774900,00000214,false,0,8,00,00,00,00,00,00,03,00
361775100,00000215,false,0,8,00,00,00,00,00,00,07,00
361775900,00000236,false,0,8,0F,FA,10,00,F0,00,00,7A
361776600,00000347,false,0,8,09,00,00,16,12,00,02,3A
361777100,0000032F,false,0,8,C1,12,00,00,00,00,00,00
361776300,0000066B,false,1,8,01,37,30,30,00,00,00,00
361776500,0000066C,false,1,8,02,AF,93,0A,D8,00,00,00
361777300,00000289,false,1,8,27,10,4E,20,0D,3C,11,10
361777500,00000287,false,1,8,27,10,27,10,27,10,00,00
361777800,0000056D,false,1,8,2A,00,00,20,00,00,28,8A
361778000,00000732,false,1,8,03,E8,03,E8,64,64,05,3A
361777500,00000143,false,0,8,00,00,00,04,08,7D,11,17
361777700,0000022D,false,0,8,01,00,47,FF,00,00,00,00
361779900,00000133,false,0,8,6F,00,03,00,40,00,00,00
361778300,00000377,false,1,8,05,B9,00,80,3A,37,37,22
361779700,0000028B,false,1,8,27,10,4E,20,0D,3D,01,14
361780000,0000056F,false,1,8,2A,88,2A,28,00,00,28,8A
361780200,00000285,false,1,8,00,00,14,09,91,FE,0C,10
361780500,00000734,false,1,8,03,E8,03,E8,64,64,35,35
361781300,00000373,false,1,8,B9,B9,7F,7A,0C,58,80,16
361780100,00000145,false,0,8,4E,20,AF,FF,8F,FF,0F,FF
361780400,00000308,false,0,8,00,00,00,40,01,66,CC,00
361780600,00000312,false,0,8,66,F0,06,F0,08,EF,07,23
361780800,000007BC,false,0,8,21,00,00,00,00,00,00,00
361781100,000002F1,false,0,8,00,00,15,71,00,1F,FF,00
361782000,0000022A,false,0,8,00,18,84,00,04,00,04,00
361782400,00000362,false,1,8,02,01,00,00,00,00,00,00
361782600,00000288,false,1,8,27,10,4E,20,0D,3B,01,10
361782900,0000056C,false,1,8,2A,88,02,20,00,00,28,8A
361783100,0000075A,false,1,8,03,E8,03,E8,64,64,36,37
361782500,0000035A,false,0,8,00,80,80,80,80,00,00,00
361782700,00000315,false,0,8,3C,02,00,00,00,00,71,01
361784400,00000207,false,0,8,00,00,00,00,00,00,00,00
361784600,00000229,false,0,8,08,07,D0,3F,FF,0C,00,00
361784900,00000300,false,0,8,00,80,83,80,1F,FF,7F,F3
361785100,00000210,false,0,8,00,00,00,80,C0,07,D0,FF
361785400,00000328,false,0,8,00,00,83,00,00,00,00,00
361785600,00000330,false,0,8,15,00,00,00,FF,FF,3F,80
361784700,00000207,false,1,8,00,00,00,00,00,00,00,00
361785900,00000236,false,0,8,0F,FA,10,00,00,00,00,F2
361787300,00000222,false,0,8,00,00,00,00,04,00,00,00
361787500,00000143,false,0,8,00,00,00,04,08,7D,11,17
361787800,00000418,false,0,8,50,FF,FF,00,00,00,00,01
361788000,00000425,false,0,8,00,21,0A,10,00,00,00,00
361788300,0000039A,false,0,8,67,F8,00,00,00,00,00,00
361787300,00000289,false,1,8,27,10,4E,20,0D,3C,11,10
361787500,00000287,false,1,8,27,10,27,10,27,10,00,00
361789700,0000028B,false,1,8,27,10,4E,20,0D,3D,01,14
361789900,00000133,false,0,8,6F,00,00,00,40,00,00,00
361790100,00000145,false,0,8,4E,20,AF,FF,8F,FF,0F,FF
361790300,00000134,false,0,8,20,00,00,00,00,00,51,08
361790600,00000346,false,0,8,27,10,29,24,00,01,08,64
361790800,00000308,false,0,8,00,00,00,00,00,06,CC,00
361791100,00000312,false,0,8,06,F0,06,F0,08,EF,07,23
361790000,00000285,false,1,8,00,00,14,09,91,FE,0C,10
361791300,00000373,false,1,8,B9,B9,7F,7A,0C,58,80,16
361792400,00000362,false,1,8,02,01,00,00,00,00,00,00
361792600,00000288,false,1,8,27,10,4E,20,0D,3B,01,10
361791400,000002E1,false,0,8,00,00,80,1F,FF,00,00,00
361792400,00000359,false,0,8,30,03,7F,80,C0,00,2E,00
361792700,00000424,false,0,8,04,91,04,10,00,05,00,00
361792900,0000035A,false,0,8,00,80,80,80,80,00,00,00
361794400,00000200,false,0,8,00,03,00,00,00,00,00,00
361792800,00000370,false,1,8,05,BE,00,00,00,00,00,00
361793100,00000424,false,1,8,04,91,04,10,00,05,00,00
361795000,00000371,false,1,8,40,00,00,00,00,00,00,00
361794600,00000208,false,0,8,00,20,00,00,00,00,00,00
361794900,00000214,false,0,8,00,00,00,00,00,00,00,00
361795100,00000215,false,0,8,00,00,00,00,00,00,07,00
361795400,00000520,false,0,8,00,00,00,00,00,00,00,00
361795800,00000236,false,0,8,0F,FA,10,00,10,00,00,EA
361796600,00000154,false,0,8,65,65,60,65,0A,07,6C,78
361796900,00000154,false,1,8,65,65,60,65,0A,07,6C,78
361797300,00000289,false,1,8,27,10,4E,20,0D,3C,11,10
361797600,00000287,false,1,8,27,10,27,10,27,10,00,00
361797100,0000032F,false,0,8,9C,13,00,00,00,00,00,00
361797400,00000143,false,0,8,00,00,00,1C,08,7D,11,17
361797600,00000387,false,0,8,01,FE,7F,7A,0C,58,3E,3C
361798000,0000022D,false,0,8,01,00,47,FF,00,00,00,00
361797800,00000299,false,1,8,35,37,3A,3B,35,00,00,00
361798000,00000732,false,1,8,03,E8,03,E8,64,64,05,3A
361798300,00000377,false,1,8,05,B9,00,80,3A,37,37,22
361799700,0000028B,false,1,8,27,10,4E,20,0D,3D,01,14
361800000,00000285,false,1,8,00,00,14,09,91,FE,0C,10
361800200,0000029B,false,1,8,35,36,3F,36,39,0A,14,34
361800400,00000734,false,1,8,03,E8,03,E8,64,64,35,35
361799800,00000133,false,0,8,6F,00,00,00,40,00,00,00
361800100,00000145,false,0,8,4E,20,6F,FF,8F,FF,0F,FF
361800300,00000308,false,0,8,00,00,00,00,00,06,CC,00
361800500,00000353,false,0,8,00,00,00,00,00,00,00,00
361800800,00000312,false,0,8,06,F0,06,F0,08,EF,07,23
361801000,000002F1,false,0,8,00,00,15,6F,00,DF,FF,00
361801300,000007BC,false,0,8,22,00,00,00,00,00,00,00
361801600,00000185,false,0,8,00,00,0A,00,00,00,00,00
361801800,0000030C,false,0,8,00,00,00,00,00,00,00,00
361801200,00000373,false,1,8,B9,B9,7F,7A,0C,58,80,16
361801800,00000185,false,1,8,00,00,0A,00,00,00,00,00
361802400,00000362,false,1,8,02,01,00,00,00,00,00,00
361802100,0000022A,false,0,8,00,00,44,00,04,00,04,00
361802300,0000022B,false,0,8,04,FF,00,00,00,00,00,00
361802600,00000345,false,0,8,00,00,FF,FF,0F,FF,0F,FF
361802800,00000315,false,0,8,00,02,00,00,00,00,71,01
361803000,0000035A,false,0,8,00,80,80,80,80,00,0C,00
361804400,00000229,false,0,8,08,07,D0,3F,FF,0C,00,00
361804600,00000300,false,0,8,00,80,83,80,1F,FF,7F,F3
361802600,00000286,false,1,8,00,00,00,36,00,00,0A,00
361802900,00000288,false,1,8,27,10,4E,20,0D,3B,01,10
361803100,00000298,false,1,8,35,37,3F,36,39,00,00,34
361803400,0000075A,false,1,8,03,E8,03,E8,64,64,36,37
361804800,00000328,false,0,8,00,00,83,00,10,00,00,18
361805100,00000210,false,0,8,00,00,00,00,40,07,D0,FF
361805300,00000330,false,0,8,15,00,00,00,FF,FF,3F,80
361805600,0000038C,false,0,8,66,04,20,40,00,00,00,00
361805800,00000236,false,0,8,0F,FA,10,00,20,00,00,C2
361807300,00000289,false,1,8,27,10,4E,20,0D,3C,11,10
361807500,00000287,false,1,8,27,10,27,10,27,10,00,00
361807700,00000566,false,1,8,22,8A,0A,A0,A8,A0,AA,8A
361807400,00000143,false,0,8,00,00,00,1C,08,7D,11,17
361807600,00000418,false,0,8,50,FF,FF,00,00,00,00,01
361809700,0000028B,false,1,8,27,10,4E,20,0D,3D,01,14
361809900,00000285,false,1,8,00,00,14,09,91,FE,0C,10
361810200,0000056A,false,1,8,22,8A,0A,A0,A8,A0,AA,8A
361809800,00000133,false,0,8,6F,00,03,00,40,00,00,00
361810100,00000145,false,0,8,4E,20,6F,FF,8F,FF,0F,FF
361810300,00000308,false,0,8,00,00,00,40,01,66,CC,00
361810600,00000346,false,0,8,27,10,29,24,00,01,08,64
361810800,00000312,false,0,8,66,F0,06,F0,08,EF,07,23
361811200,000002E1,false,0,8,00,00,80,1F,FF,00,00,00
361811200,00000373,false,1,8,B9,B9,7F,7A,0C,58,80,16
361812400,00000370,false,1,8,05,BE,00,00,00,00,00,00
361812600,00000288,false,1,8,27,10,4E,20,0D,3B,01,10
361812400,00000359,false,0,8,30,03,7F,80,C0,00,2E,00
361812600,0000035A,false,0,8,00,80,80,80,80,00,0C,00
361814300,00000200,false,0,8,00,03,00,00,40,00,40,00
361812900,00000362,false,1,8,02,01,00,00,00,00,00,00
361813100,00000564,false,1,8,22,8A,AA,AA,A8,A0,AA,8A
361814600,00000208,false,0,8,00,20,00,00,00,00,00,00
361814800,00000214,false,0,8,00,00,00,00,00,00,00,00
361814900,00000101,false,0,1,84
361815200,00000215,false,0,8,00,00,00,00,00,00,04,00
361815800,00000236,false,0,8,0F,FA,10,00,30,00,00,DA
361817300,00000289,false,1,8,27,10,4E,20,0D,3C,11,10
361817500,00000287,false,1,8,27,10,27,10,27,10,00,00
361817800,00000567,false,1,8,AA,02,00,00,80,AA,00,00
361817200,0000032F,false,0,8,12,14,00,00,00,00,00,00
361817500,00000143,false,0,8,00,00,00,04,08,7D,11,17
361817700,00000390,false,0,8,08,00,FF,FF,FE,00,00,00
361818000,00000732,false,1,8,03,E8,03,E8,64,64,05,3A
361818200,00000377,false,1,8,05,B9,00,80,3A,37,37,22
361819700,0000028B,false,1,8,27,10,4E,20,0D,3D,01,14
361818500,0000022D,false,0,8,01,18,87,FF,00,00,00,00
361819800,00000133,false,0,8,6F,00,03,00,40,00,00,00
361820000,00000145,false,0,8,4E,20,AF,FF,8F,FF,0F,FF
361820200,00000308,false,0,8,00,00,00,40,01,66,CC,00
361820500,00000348,false,0,8,7F,FE,FF,FE,00,00,FF,FE
361820700,00000312,false,0,8,66,F0,06,F0,08,EF,07,23
361821000,000007BC,false,0,8,23,00,00,00,00,00,00,00
361819900,00000285,false,1,8,00,00,14,09,91,FE,0C,10
361820200,0000056B,false,1,8,AA,02,00,00,80,AA,00,00
361820400,00000734,false,1,8,03,E8,03,E8,64,64,35,35
361821200,00000373,false,1,8,B9,B9,7F,7B,0C,58,80,16
361822400,00000362,false,1,8,02,01,00,00,00,00,00,00
361822600,00000288,false,1,8,27,10,4E,20,0D,3B,01,10
361822800,00000565,false,1,8,AA,02,00,00,80,AA,00,00
361821200,000002F1,false,0,8,00,00,15,6E,00,9F,FF,00
361822300,0000022A,false,0,8,00,00,44,00,04,00,04,00
361822500,0000032D,false,0,8,A0,4E,20,4E,20,33,19,00
361822800,00000315,false,0,8,44,02,00,00,00,00,71,01
361823000,0000035A,false,0,8,00,80,80,80,80,00,00,00
361823100,0000075A,false,1,8,03,E8,03,E8,64,64,36,37
361823700,000005A1,false,1,8,2A,A2,AA,2A,A2,8A,82,A2
361824400,00000229,false,0,8,08,67,D0,3F,FF,14,00,00
361824600,00000300,false,0,8,00,00,83,80,9F,FF,7F,F3
361824800,00000328,false,0,8,00,00,83,00,20,00,00,30
361825100,00000210,false,0,8,00,00,00,00,40,07,D0,FF
361825300,00000330,false,0,8,0D,00,00,00,FF,FF,3F,80
361825600,000004A0,false,0,8,FF,FF,33,33,FF,FF,FF,00
361825800,00000236,false,0,8,0F,FA,10,00,40,00,00,92
361827300,00000143,false,0,8,00,00,00,04,08,7D,11,17
361827600,00000418,false,0,8,50,FF,FF,00,00,00,00,01
361827900,00000425,false,0,8,00,21,0A,10,00,00,00,00
361827300,00000289,false,1,8,27,10,4E,20,0D,3C,11,10
361827500,00000287,false,1,8,27,10,27,10,27,10,00,00
361827700,0000056D,false,1,8,2A,00,00,20,00,00,28,8A
361829700,0000028B,false,1,8,27,10,4E,20,0D,3D,01,14
361829900,00000285,false,1,8,00,00,14,09,91,FE,0C,10
361830100,0000056F,false,1,8,2A,88,2A,28,00,00,28,8A
361829800,00000133,false,0,8,6F,00,00,00,40,00,00,00
361830000,00000145,false,0,8,4E,20,AF,FF,8F,FF,0F,FF
361830200,00000308,false,0,8,00,00,00,00,00,06,CC,00
361830500,00000346,false,0,8,27,10,29,24,00,01,08,64
361830700,00000312,false,0,8,06,F0,06,F0,08,EF,07,23
361830900,000006FA,false,0,8,02,38,36,37,00,00,00,00
361831200,000006FA,false,1,8,02,38,36,37,00,00,00,00
361831400,00000373,false,1,8,B9,B9,7F,7C,0C,58,80,16
361832200,00000362,false,1,8,02,01,00,00,00,00,00,00
361831400,000002E1,false,0,8,00,00,00,9F,FF,00,00,00
361832300,00000359,false,0,8,30,03,7F,80,C0,00,2E,00
361832600,00000424,false,0,8,04,91,04,10,00,05,00,00
361832800,0000035A,false,0,8,00,80,80,80,80,00,00,00
361832400,00000370,false,1,8,05,BE,00,00,00,00,00,00
361832600,00000288,false,1,8,27,10,4E,20,0D,3B,01,10
361832900,00000424,false,1,8,04,91,04,10,00,05,00,00
361833100,0000056C,false,1,8,2A,88,02,20,00,00,28,8A
361834100,00000388,false,1,8,01,00,00,00,00,00,00,02
361834300,00000388,false,0,8,01,00,00,00,00,00,00,02
361834600,00000200,false,0,8,00,03,00,00,80,00,80,00
361834800,00000208,false,0,8,00,20,30,00,00,00,40,00
361835100,00000144,false,0,8,00,00,00,00,00,00,00,00
361835300,00000214,false,0,8,00,00,00,00,00,00,03,00
361835600,00000215,false,0,8,00,00,00,00,00,00,04,00
361835800,00000236,false,0,8,0F,FA,10,00,50,00,00,8A
361837300,00000143,false,0,8,00,00,00,1C,08,7D,11,17
361837500,0000032F,false,0,8,4F,15,00,00,00,00,00,00
361837800,0000034A,false,0,8,11,00,01,00,00,00,00,00
361837200,00000289,false,1,8,27,10,4E,20,0D,3C,11,10
361837500,00000287,false,1,8,27,10,27,10,27,10,00,00
361837700,00000732,false,1,8,03,E8,03,E8,64,64,05,3A
361838000,00000733,false,1,8,35,37,35,37,10,B0,A1,37
361838200,00000377,false,1,8,05,B9,00,7B,3A,37,37,22
361838000,0000022D,false,0,8,01,18,87,FF,00,00,00,00
361838300,0000039A,false,0,8,67,F8,00,00,00,00,00,00
361839700,0000028B,false,1,8,27,10,4E,20,0D,3D,01,14
361839900,00000285,false,1,8,00,00,14,09,91,FE,0C,10
361840100,00000734,false,1,8,03,E8,03,E8,64,64,35,35
361839700,00000133,false,0,8,6F,00,00,00,40,00,00,00
361839900,00000145,false,0,8,4E,20,6F,FF,8F,FF,0F,FF
